# Hz S RI R 50
1000000000.00 1.835305e-01 -2.498125e-01 1.116228e-01 6.479112e-02 2.133419e-01 -1.180990e-01 -1.803777e-01 1.429547e-01 3.032018e-01 -1.277423e-01 -1.125732e-01 9.621216e-02 -3.542622e-01 -1.848469e-01 -1.070035e-01 2.889498e-01 3.855722e-01 -3.568465e-01
1001000000.00 -2.022127e-01 5.230200e-03 4.742096e-01 -3.764190e-01 -4.257255e-01 -5.442578e-01 -2.827289e-01 -1.664700e-01 -2.985836e-01 1.327433e-02 5.120315e-01 -2.153548e-01 -1.215808e-01 1.907107e-01 -1.748477e-01 4.503730e-01 -1.018701e-02 -7.651945e-03
1002000000.00 1.763153e-01 -2.375550e-01 7.200344e-03 5.592302e-02 3.273812e-01 -5.693764e-01 3.076180e-01 4.247801e-01 -1.507919e-01 -4.839373e-01 -9.304361e-02 3.214314e-01 -1.592952e-01 -1.267240e-02 2.387141e-02 -1.512470e-02 -2.220800e-01 -6.311484e-01
1003000000.00 1.252901e-01 -7.066089e-01 1.399984e-02 1.825669e-01 -2.514563e-01 -1.494382e-01 5.444111e-01 -1.649196e-01 -2.177502e-01 1.881183e-01 -2.988827e-01 -2.294644e-01 -1.377920e-01 -5.665420e-01 -2.876912e-01 2.614889e-01 -5.687371e-01 3.217376e-01
1004000000.00 1.954578e-01 -2.077531e-01 6.051919e-02 2.396351e-01 5.286643e-01 3.821743e-01 1.202272e-01 6.034885e-02 -3.896453e-01 5.733868e-01 -4.839404e-01 4.195315e-01 1.831591e-01 3.190456e-01 2.971874e-01 -1.060114e-01 -6.124148e-01 -1.189056e-01
1005000000.00 2.037176e-01 -2.331256e-01 -9.409069e-02 1.062790e-01 -4.572588e-01 -7.107828e-02 -1.382898e-01 4.735939e-01 -6.887890e-02 1.554445e-02 -4.474884e-01 1.240890e-01 -3.927405e-01 1.230630e-01 -2.502885e-01 -8.548030e-02 -1.545208e-01 -1.135638e-01
1006000000.00 2.268373e-01 -2.520962e-01 -1.950800e-01 6.516765e-01 -5.776443e-01 -3.159268e-01 1.162446e-01 -5.024551e-01 -1.622428e-01 1.420000e-01 4.071620e-02 -6.634292e-01 -1.633067e-01 -5.129442e-01 -5.277093e-02 -7.541208e-03 -1.664148e-03 -6.592031e-02
1007000000.00 3.109986e-01 -7.121780e-01 -1.627796e-01 5.438560e-01 3.749022e-01 3.369060e-01 -1.294797e-01 2.975451e-01 -1.115467e-01 2.633031e-01 4.879746e-01 4.066903e-01 2.333995e-02 -2.005876e-02 -1.714841e-01 -1.946373e-01 -1.484864e-01 -4.659859e-01
1008000000.00 1.904644e-01 -2.224167e-01 -1.896329e-01 4.210797e-01 1.525615e-01 1.395488e-01 -2.958180e-01 2.653786e-02 -4.426565e-03 -1.942211e-01 -6.064980e-01 -1.293639e-01 1.451386e-01 -1.182420e-01 1.438662e-01 2.538673e-01 4.626809e-01 4.407450e-01
1009000000.00 -2.341329e-01 -1.333240e-01 -1.999201e-02 -3.206969e-01 1.550891e-01 -5.114382e-01 3.908828e-01 2.280017e-02 1.432597e-02 2.485341e-02 1.420679e-04 5.501574e-01 6.224293e-02 -2.885915e-02 3.322106e-01 3.239522e-01 -2.713819e-01 3.756029e-01
1010000000.00 2.345649e-01 -2.463706e-01 5.896598e-02 -5.641463e-01 9.317049e-02 1.126221e-01 -3.657547e-02 -3.542425e-01 7.733522e-02 -9.300818e-02 -9.994744e-03 3.946396e-02 -1.449041e-02 1.034361e-01 -2.466420e-02 -3.542021e-01 3.641132e-01 8.209295e-02
1011000000.00 9.977589e-02 1.099443e-01 1.183332e-01 2.822120e-01 2.188858e-01 -4.230119e-01 -2.675639e-02 -9.928626e-03 6.021833e-02 -1.841059e-01 -6.110716e-01 -2.671359e-01 -4.992410e-02 -5.286755e-02 7.964804e-02 -1.847347e-01 -5.047338e-01 3.676628e-01
1012000000.00 2.147369e-01 4.877420e-01 -2.073666e-01 -5.233896e-01 -6.509726e-01 -1.608333e-01 -6.829258e-02 1.744748e-02 4.622194e-01 2.743511e-02 1.818756e-01 1.506735e-01 1.004077e-01 4.008241e-02 4.011016e-01 4.047014e-02 1.279571e-01 2.876341e-01
1013000000.00 2.162041e-01 -2.223070e-01 2.658034e-02 1.905386e-01 1.285017e-01 5.277255e-01 -6.744812e-02 9.965849e-02 -7.211343e-02 -2.785963e-01 -2.510899e-02 1.780602e-01 -4.755412e-01 -2.167899e-01 -2.041154e-01 6.621856e-01 -2.392491e-01 -5.507028e-01
1014000000.00 -1.390483e-03 3.943482e-01 -3.565830e-02 2.812872e-02 5.309319e-02 -4.172718e-02 3.664135e-01 5.369865e-01 -2.289507e-01 5.257391e-01 5.983496e-02 4.414733e-01 -1.265700e-01 -6.712192e-01 4.356531e-01 5.349815e-01 6.685530e-01 8.248684e-02
1015000000.00 -1.294249e-01 -2.511694e-01 -9.068646e-02 2.266268e-01 -6.329497e-02 -1.338086e-01 3.449556e-01 1.975819e-01 -3.305240e-01 3.881819e-01 -2.397666e-03 1.146605e-02 -3.251244e-02 4.927442e-01 -2.162732e-01 -4.315645e-01 -1.372784e-02 -1.684401e-02
1016000000.00 2.220682e-01 -1.921715e-01 -1.914256e-01 -2.241403e-01 3.117908e-02 7.876477e-02 -1.291999e-02 1.484484e-02 -7.443903e-02 -4.114771e-01 -1.361747e-02 4.923536e-02 -3.807397e-01 1.498620e-01 -2.936939e-02 1.070182e-02 -6.292872e-02 -4.683940e-01
1017000000.00 -3.135837e-02 3.527957e-01 4.278783e-01 -3.704680e-01 4.649332e-01 -3.698956e-01 2.923088e-02 7.110940e-03 7.868651e-02 -3.676041e-01 2.573312e-01 3.762669e-01 -2.436042e-01 6.323339e-01 -1.055760e-01 -1.764642e-01 2.457874e-01 3.144006e-01
1018000000.00 1.968557e-01 -2.306168e-01 2.583333e-01 -1.925605e-01 -2.016558e-02 6.486581e-02 3.643489e-01 5.154625e-01 -5.997924e-02 -1.082574e-01 1.384126e-01 4.339711e-01 -2.631107e-01 -1.218991e-01 3.554988e-01 1.209298e-01 4.123213e-01 -3.527599e-01
1019000000.00 6.865013e-01 1.937283e-01 1.351637e-01 2.988501e-01 2.814439e-01 -2.477635e-01 3.365146e-01 -4.932014e-01 1.912130e-02 5.854216e-02 -1.427018e-01 -8.484971e-02 -1.329692e-01 -4.497080e-01 4.397550e-02 -1.923859e-01 -3.321308e-01 3.263555e-01
1020000000.00 2.139262e-01 -1.983995e-01 2.964777e-02 6.969261e-03 -1.490448e-01 3.267858e-01 1.638724e-01 -2.904970e-01 6.583438e-02 -2.642166e-01 -2.607895e-01 -2.166418e-02 -6.503488e-03 -4.433129e-01 1.241703e-02 -4.320296e-02 -2.635585e-01 6.800989e-02
1021000000.00 1.008278e-01 -8.053640e-01 -1.641147e-01 -2.077595e-01 -2.210927e-01 4.181536e-01 -3.773856e-02 -1.490126e-01 -3.865684e-02 9.787385e-02 2.963508e-01 2.138519e-01 -2.766212e-01 6.559725e-03 -2.074551e-02 2.974917e-01 -1.198690e-01 -4.118325e-01
1022000000.00 -2.527397e-01 -2.558035e-01 -1.173311e-01 -1.751588e-01 1.492703e-01 -5.231350e-01 -6.777729e-02 -3.994448e-01 2.450755e-02 3.989272e-01 9.266582e-02 -5.704203e-01 2.882633e-01 -2.139584e-01 -2.621929e-01 -5.935995e-01 -5.510694e-01 6.391332e-02
1023000000.00 2.087206e-01 -2.401490e-01 5.930704e-02 -6.306933e-01 2.814756e-01 -3.347699e-01 -1.560862e-01 -2.495438e-01 -4.047500e-01 -6.880751e-03 3.717481e-01 1.587090e-01 3.619933e-02 2.593207e-03 9.513489e-02 -5.121259e-01 -2.332450e-01 -3.527517e-01
1024000000.00 2.342876e-01 -2.452385e-01 1.151583e-01 -2.132117e-01 -4.705233e-01 -4.565669e-01 3.375497e-02 -4.844527e-01 -5.792477e-01 2.969476e-01 1.356357e-01 -4.338209e-01 2.929478e-01 -4.382255e-01 -1.777447e-01 1.326104e-01 -1.359849e-02 3.225952e-01
1025000000.00 -1.712663e-01 5.691207e-02 4.577758e-01 4.655523e-01 2.286597e-01 9.924070e-02 -1.152679e-01 -1.430761e-01 -2.008392e-01 -3.145049e-01 -1.196086e-02 8.110474e-03 4.544814e-02 -2.620240e-01 -9.637114e-02 -2.881101e-01 -2.423450e-01 -1.420490e-01
1026000000.00 2.076438e-01 -2.425121e-01 -2.253333e-01 3.297689e-01 -7.892547e-02 -4.230062e-02 -1.290944e-01 -2.804660e-01 1.939828e-01 5.079789e-02 -1.209526e-01 3.270270e-01 1.941308e-01 4.974218e-01 2.669553e-01 -2.315068e-01 -1.572776e-01 -6.896463e-02
1027000000.00 -1.024029e-01 -3.373671e-01 3.745326e-01 2.706722e-01 4.669082e-01 -4.607630e-01 -7.274291e-02 6.648795e-02 2.605440e-01 -2.615566e-02 -4.551272e-01 4.349980e-01 -6.516877e-01 1.163623e-01 1.402251e-01 -1.631938e-01 -1.237236e-01 -1.563458e-01
1028000000.00 1.959317e-01 -2.562534e-01 -1.963390e-01 -5.121721e-01 -1.930711e-02 1.997908e-01 -2.886243e-01 5.328964e-01 -6.151570e-01 2.413092e-01 5.953831e-02 9.958411e-02 -8.752576e-02 2.721607e-01 2.122270e-01 9.355868e-02 2.419335e-01 1.731070e-01
1029000000.00 2.030709e-01 -2.174597e-01 4.416075e-01 -2.489325e-01 -3.977215e-01 -2.014076e-01 -3.509620e-01 3.992273e-01 1.181990e-02 -1.755922e-03 5.042545e-02 -5.650973e-03 -1.506598e-01 -2.921069e-01 -2.907064e-02 -2.891515e-02 -1.254548e-01 6.304502e-01
1030000000.00 2.070482e-01 -2.097819e-01 -8.429235e-02 3.931005e-01 6.417703e-02 -2.074632e-01 5.800153e-01 -1.916438e-01 2.099593e-01 3.380420e-02 1.716254e-01 9.579098e-02 6.730037e-03 3.456061e-03 -3.956041e-01 3.412836e-02 -3.348190e-01 4.699454e-01
1031000000.00 2.144674e-01 -2.198967e-01 -3.493767e-01 -2.857542e-01 -2.259959e-01 -2.493253e-01 -1.087500e-02 -1.588536e-01 6.500382e-02 6.071910e-01 -7.018607e-02 -2.912773e-01 -4.490820e-01 -5.171125e-02 -3.929291e-01 -9.516884e-02 -3.246996e-02 2.258401e-02
1032000000.00 2.150340e-01 -2.329933e-01 3.852341e-01 1.492007e-01 3.885456e-02 2.482819e-01 2.711163e-01 1.873431e-01 -4.757745e-01 -6.604250e-02 -6.441826e-01 -1.191092e-01 3.225066e-01 -4.607215e-01 4.371071e-01 1.036721e-01 -1.470956e-01 1.141135e-02
1033000000.00 -8.989510e-02 -5.707338e-01 -3.594730e-02 9.038311e-03 -2.908465e-01 -3.250738e-01 -5.411398e-03 2.054090e-02 6.686718e-03 1.577781e-02 -1.630132e-01 3.417641e-02 3.511720e-01 2.879682e-01 9.105642e-02 4.040915e-03 1.927354e-01 2.352128e-01
1034000000.00 1.994238e-01 -2.406349e-01 2.754678e-01 -3.048189e-01 7.614788e-02 -8.624264e-02 -4.767698e-02 -3.791335e-01 -2.542011e-02 7.077537e-03 -3.963338e-01 9.675749e-02 5.370274e-01 5.718045e-03 -1.847439e-01 1.051378e-01 2.624695e-01 3.366472e-01
1035000000.00 1.822466e-01 -2.395764e-01 -3.483716e-01 -7.188980e-02 3.380684e-02 5.224003e-02 6.804044e-03 -2.898065e-02 6.247041e-01 -2.825001e-01 -6.534942e-01 1.934785e-01 1.967179e-02 4.153035e-02 -5.248049e-01 2.881608e-01 1.806959e-01 3.353770e-01
1036000000.00 -2.033736e-01 -3.838385e-01 2.341917e-01 5.353276e-01 3.023336e-01 8.752182e-02 -2.083251e-01 4.610446e-01 -1.162603e-01 -4.211658e-02 2.870369e-03 7.470126e-03 -5.613360e-01 1.198705e-01 -5.077732e-01 -1.212604e-01 -4.217688e-02 2.106035e-02
1037000000.00 1.359241e+00 7.185324e-01 2.830078e-01 -2.357861e-01 3.822592e-01 -7.383535e-02 -1.031972e-02 -6.119716e-01 2.937177e-01 3.669463e-01 1.933212e-01 -4.464840e-01 3.893735e-01 1.583770e-01 1.595418e-01 4.232960e-01 -7.484079e-02 6.212398e-03
1038000000.00 2.286234e-01 -2.162421e-01 -1.229418e-01 1.030763e-01 -1.444457e-01 7.099696e-02 4.168240e-01 -2.847057e-01 -4.066243e-01 -4.009365e-01 1.703620e-01 4.651563e-01 -4.896641e-01 -2.105952e-02 -3.367442e-02 5.117513e-02 4.030003e-02 1.063174e-01
1039000000.00 2.152109e-01 -2.079395e-01 -5.804602e-02 -9.535976e-03 5.875494e-01 -1.147883e-02 4.394403e-01 3.751223e-01 -8.356065e-02 -4.237189e-03 2.416313e-01 4.645479e-01 2.076014e-01 3.165872e-01 1.416462e-01 -1.995050e-01 -5.889661e-03 -2.921284e-01
1040000000.00 2.257675e-01 -2.141809e-01 1.223112e-01 2.380479e-01 -3.260244e-01 3.262291e-01 2.098003e-01 -4.096183e-01 3.770249e-01 9.341404e-02 2.666476e-03 1.884701e-02 -6.155359e-01 1.662862e-02 -1.515765e-01 4.595647e-01 -6.729391e-03 5.595909e-01
1041000000.00 2.205884e-01 2.074203e-01 -4.154348e-03 3.204958e-01 1.788406e-02 1.766245e-01 -6.510081e-01 -6.116614e-02 -4.342511e-01 -1.135355e-01 3.444807e-01 -2.533528e-01 2.024892e-01 -1.462750e-01 -1.093634e-01 -1.023892e-01 -3.844939e-01 2.295436e-01
1042000000.00 1.905697e-01 -2.413654e-01 1.811174e-01 2.853906e-01 1.011718e-01 -2.139751e-01 -2.336555e-01 -4.310516e-02 1.866267e-01 -3.663128e-01 5.158968e-01 -2.567232e-03 2.657907e-02 5.369729e-01 3.617058e-01 -1.509947e-01 -6.507968e-03 -1.816985e-02
1043000000.00 1.109702e+00 -1.309798e-01 4.402206e-01 5.688699e-02 3.944006e-02 -3.633093e-01 2.378811e-01 -2.726664e-01 8.067439e-03 2.927540e-02 3.887447e-01 4.615038e-02 4.504177e-02 -3.172206e-02 1.142006e-02 2.366630e-01 1.071254e-01 -3.989869e-01
1044000000.00 2.028346e-01 -2.197200e-01 -1.451992e-02 3.618935e-02 -2.536664e-02 7.292931e-02 5.349053e-01 3.412087e-01 -1.130490e-02 2.726004e-02 -1.238966e-01 9.666906e-02 -1.346807e-01 1.660340e-01 5.402305e-02 3.726673e-01 -2.924226e-01 4.623075e-01
1045000000.00 2.055725e-01 -2.503237e-01 -5.184582e-01 -1.167371e-01 8.281593e-02 -1.285286e-01 -5.569011e-02 -2.793956e-01 3.201909e-02 5.348266e-01 -4.237690e-01 -2.650353e-01 -8.481590e-03 -4.111747e-02 -4.554019e-01 6.191721e-02 4.978481e-01 -4.434776e-01
1046000000.00 -1.952291e-01 -1.375254e-01 -3.848085e-01 1.433244e-01 2.032648e-02 -7.937224e-02 -3.190765e-01 -5.217994e-01 -3.024921e-01 2.962504e-01 -9.556640e-02 2.441790e-01 7.015567e-02 1.690116e-01 8.957871e-02 -2.439033e-01 -1.021912e-01 -4.619696e-01
1047000000.00 2.199698e-01 -2.228961e-01 3.296564e-01 -5.478841e-01 5.320185e-02 2.593586e-03 -3.497488e-02 -8.139615e-02 -2.653270e-01 -8.449040e-02 -3.137143e-01 5.297153e-01 1.309981e-01 -1.246333e-01 2.843430e-01 3.270046e-01 -4.082148e-01 -4.745913e-02
1048000000.00 1.978289e-01 -2.203913e-01 3.863118e-02 5.914359e-01 3.127264e-01 -2.731571e-01 4.505199e-01 -7.046831e-02 1.338000e-01 2.109849e-01 -3.023118e-01 -5.442679e-01 -5.883777e-01 -1.651661e-01 3.858642e-01 1.264258e-01 6.898077e-02 2.397743e-01
1049000000.00 1.209613e-01 -1.174977e+00 -2.045147e-01 -6.050985e-01 4.851042e-01 -2.094216e-01 6.796235e-02 8.432067e-02 -4.979423e-01 3.346978e-01 -1.264596e-01 -9.413789e-02 -1.896072e-01 -1.695490e-01 -1.887894e-01 -1.754856e-01 -1.912723e-01 -8.596102e-02
1050000000.00 1.986141e-01 -2.189582e-01 -1.769294e-01 6.719702e-02 7.109489e-02 -3.319791e-01 5.655926e-01 -2.224709e-01 -4.643343e-02 5.205999e-01 -5.124373e-01 -3.247253e-01 1.982305e-01 -3.098405e-01 5.950644e-01 1.582723e-01 -3.693081e-02 -5.002204e-02
1051000000.00 4.897100e-01 4.348119e-01 1.855004e-01 -6.605974e-01 1.087630e-01 2.056328e-01 -1.961483e-01 1.409578e-01 1.338996e-01 3.049566e-02 -2.885674e-01 -1.726256e-01 3.189580e-01 3.742904e-01 -5.614577e-01 1.292730e-01 -1.087386e-02 5.046250e-01
1052000000.00 -1.031420e-01 -6.427541e-01 5.575583e-01 5.823786e-02 2.283912e-01 -2.261751e-01 -9.931687e-03 -6.648688e-02 3.784692e-01 -4.972752e-01 -1.475185e-02 -9.112889e-03 1.341761e-03 7.875495e-03 4.992839e-01 3.230636e-01 1.134025e-01 6.739861e-02
1053000000.00 2.174439e-01 -2.391255e-01 2.327644e-02 -1.159200e-02 -1.136954e-01 2.612497e-01 4.438050e-01 3.662504e-01 -5.110630e-01 4.091752e-02 1.811123e-01 -5.359259e-02 -4.258070e-01 5.023997e-01 -3.707951e-01 1.994821e-02 5.867716e-01 -4.594747e-02
1054000000.00 9.113014e-01 -5.145877e-01 6.388892e-02 -6.698059e-03 -4.141133e-02 1.942106e-01 -2.190557e-01 3.603950e-01 2.543209e-01 4.369284e-01 1.689457e-01 1.702329e-01 1.824221e-01 4.434516e-02 -3.019614e-01 -3.483585e-01 2.992537e-01 1.898326e-03
1055000000.00 9.957813e-01 -3.664598e-01 -7.291070e-02 4.408755e-02 2.158096e-01 -5.716944e-01 1.080666e-01 1.193782e-02 5.485455e-01 -2.616653e-01 -8.263402e-02 -3.142659e-01 -1.285103e-02 -3.385029e-02 4.660178e-02 4.000359e-01 5.863507e-02 -3.375794e-02
1056000000.00 2.009866e-01 -2.379337e-01 -4.786966e-01 -4.352311e-01 4.009647e-03 -1.653221e-01 -1.833391e-01 -1.251047e-01 1.382056e-01 -6.179640e-01 4.326624e-01 3.267191e-01 -5.659977e-01 1.348405e-01 -1.465265e-01 -2.587935e-01 -3.196089e-01 5.023716e-02
1057000000.00 2.355937e-01 -2.165789e-01 -7.988523e-02 9.899929e-02 2.059518e-02 -3.507299e-03 -7.422491e-02 -1.141886e-01 5.550736e-01 1.085855e-01 -4.763725e-01 -1.556463e-01 3.734408e-01 5.697284e-01 -3.906192e-01 3.989917e-01 -6.206214e-01 1.119053e-01
1058000000.00 2.330115e-01 -2.498233e-01 1.415067e-01 2.989742e-01 3.649625e-01 -7.861516e-02 1.133164e-02 2.307495e-02 2.879868e-03 -6.746355e-01 3.476621e-01 1.364173e-01 4.315795e-01 -3.194113e-01 -5.358440e-01 1.028592e-01 -3.872505e-01 -2.169342e-01
1059000000.00 1.851284e-01 -2.148084e-01 3.565800e-01 -1.173971e-02 1.940431e-01 2.946846e-01 -1.714460e-02 -4.412461e-03 5.914078e-01 -6.660355e-02 -1.100445e-01 -2.686410e-01 -4.884840e-01 4.501520e-01 -4.738232e-02 -2.012354e-01 -1.698616e-01 -1.388296e-02
1060000000.00 1.822647e-01 -2.296899e-01 8.275604e-02 2.258610e-02 2.314205e-01 -1.577740e-01 1.204008e-01 -5.245642e-01 4.738924e-01 2.753292e-01 6.113302e-01 -3.072855e-01 -5.406009e-01 4.173106e-01 2.385325e-02 -3.275982e-02 -2.279049e-02 2.194318e-01
1061000000.00 -1.808138e-01 -7.489856e-02 3.046416e-01 6.126971e-01 -3.659362e-01 2.907544e-01 6.524169e-02 2.172706e-01 1.259887e-01 -2.980257e-02 3.437928e-01 -4.162456e-01 2.040456e-01 -5.476013e-01 3.829446e-02 -2.380836e-02 1.858472e-02 -1.831821e-01
1062000000.00 2.029674e-01 -2.089375e-01 -5.236106e-01 -4.273351e-01 -2.870906e-01 2.630387e-01 6.624691e-01 1.662837e-01 3.649767e-01 -2.112056e-01 -3.494677e-01 -8.470565e-02 4.235906e-02 3.412514e-01 -3.681356e-01 -2.156087e-01 4.302092e-02 -2.950223e-02
1063000000.00 2.150379e-01 -2.419302e-01 2.044509e-01 2.976640e-01 2.872409e-01 -3.556877e-01 4.691731e-02 6.620839e-03 4.886436e-01 2.951134e-02 1.243842e-01 -7.140817e-02 -5.558203e-02 3.392859e-01 4.591579e-01 -1.614889e-01 -2.566193e-01 -4.174191e-01
1064000000.00 2.177375e-01 -2.224455e-01 4.518875e-01 3.458141e-02 -1.294009e-02 -4.713021e-01 1.400371e-01 1.486178e-01 6.441097e-01 -2.692722e-01 -3.891643e-01 -4.829917e-01 -2.734019e-01 3.342272e-01 7.686764e-02 2.053399e-02 -2.449827e-01 3.623822e-01
1065000000.00 -2.656298e-01 -3.766204e-01 -1.867569e-01 2.248493e-01 -1.140742e-01 3.830069e-01 -1.597119e-01 1.252064e-01 -4.214597e-01 -5.097520e-01 -1.506460e-01 -2.212621e-01 1.018611e-01 -8.319499e-02 -6.193555e-02 5.166978e-02 2.389756e-02 3.856226e-01
1066000000.00 2.118542e-01 -1.895526e-01 -4.068109e-01 -3.905491e-01 -4.625315e-01 -3.379483e-01 3.525113e-02 3.613811e-02 3.122852e-01 4.290822e-01 -8.008359e-02 -3.720421e-01 2.437551e-01 -6.466314e-01 6.410822e-01 -1.294023e-01 6.503899e-01 -9.713042e-02
1067000000.00 -1.014264e-01 -1.975549e-01 3.938822e-01 -1.765556e-01 3.712526e-01 -1.085281e-02 1.193443e-01 -2.055004e-01 7.242950e-02 -1.570154e-01 -3.455793e-01 3.035389e-01 7.156041e-02 -1.894265e-01 -9.461845e-02 -8.901227e-02 -3.476898e-01 3.162246e-01
1068000000.00 2.200200e-01 -2.113237e-01 -4.788097e-02 1.905337e-01 6.622973e-01 -1.797367e-01 -4.593097e-03 3.083240e-02 -3.706709e-02 -5.083381e-01 2.663966e-01 1.932780e-01 3.356057e-01 4.908231e-01 1.756601e-01 2.588865e-01 -1.185103e-01 -2.056546e-02
1069000000.00 -2.365231e-01 -2.404955e-01 -3.863782e-01 -1.439051e-01 1.378040e-01 -5.477888e-01 -5.379298e-01 -3.997936e-01 5.980513e-03 -5.244564e-02 2.564166e-01 5.682996e-01 -7.629344e-02 -1.435352e-01 1.505847e-01 -4.576217e-01 -6.323367e-03 5.069959e-03
1070000000.00 2.078627e-01 -2.438310e-01 -4.140498e-01 1.382177e-01 5.546712e-02 7.275499e-03 -1.738221e-02 1.230697e-02 -4.587574e-02 2.436488e-01 -1.105366e-02 1.721266e-02 -2.645505e-01 -1.836305e-01 2.392194e-01 5.861080e-01 6.780032e-03 1.011459e-02
1071000000.00 1.975849e-01 -2.184832e-01 5.370284e-01 1.328118e-01 4.305666e-01 2.375616e-01 1.796766e-01 6.489622e-01 -7.245449e-02 1.979354e-01 -2.067557e-02 -2.515439e-01 3.786975e-01 -2.590447e-01 5.170454e-01 -4.089795e-01 3.981754e-01 -5.783716e-02
1072000000.00 2.276599e-01 -2.355944e-01 1.540339e-01 -2.911917e-02 1.745774e-01 6.702072e-01 -2.263503e-01 9.450693e-02 5.337107e-01 3.274417e-01 -4.228948e-02 -9.949350e-02 4.149764e-01 3.917855e-01 -4.978851e-01 -2.362066e-01 -4.278129e-01 -8.447454e-02
1073000000.00 2.133103e-01 -2.117308e-01 3.622345e-01 2.093015e-01 2.294934e-02 -4.789485e-02 4.877529e-01 1.532991e-01 -1.718036e-01 -4.444182e-01 -2.991665e-01 -6.014388e-01 -9.255709e-02 -1.622248e-01 -5.100673e-01 2.025693e-01 -1.878507e-01 7.731893e-02
1074000000.00 2.342273e-01 -2.017265e-01 -2.717696e-01 8.260680e-02 -7.953245e-02 1.960354e-01 -1.563901e-01 3.874061e-01 -1.813822e-01 -2.111216e-01 -3.563750e-01 -3.791015e-01 -1.715035e-01 3.891578e-02 -3.361613e-01 1.860295e-01 3.759149e-01 4.743977e-02
1075000000.00 2.005176e-01 -2.602407e-01 4.489332e-01 1.165349e-01 -2.313932e-02 4.038526e-02 3.119674e-02 2.042949e-02 -4.920437e-01 -3.461986e-02 1.382507e-01 -6.730850e-01 -2.986489e-02 -4.635887e-02 -2.397379e-01 -2.625975e-01 -1.930841e-01 -8.252501e-02
1076000000.00 1.961667e-01 -2.498599e-01 2.719547e-02 5.879649e-02 -1.003156e-02 6.298280e-01 -3.856493e-03 5.635735e-01 4.165420e-01 -1.139054e-01 3.863146e-01 1.160139e-01 -1.237068e-01 -2.656424e-01 -1.878228e-01 4.882239e-01 -5.606492e-01 -2.308719e-01
