(1606859828.034024) vcan0 158#000000000000000A
(1606859828.034064) vcan0 161#000005500108000D
(1606859828.034075) vcan0 191#010090A1410030
(1606859828.034084) vcan0 133#0000000098
(1606859828.035198) vcan0 136#000200000000001B
(1606859828.035254) vcan0 13A#0000000000000019
(1606859828.035271) vcan0 13F#000000050000001F
(1606859828.035286) vcan0 164#0000C01AA8000031
(1606859828.035307) vcan0 17C#0000000010000012
(1606859828.036406) vcan0 18E#00005C
(1606859828.037549) vcan0 183#0000000B0000101F
(1606859828.037581) vcan0 143#6B6B00D1
(1606859828.039772) vcan0 095#800007F400000008
(1606859828.040896) vcan0 039#0039
(1606859828.042027) vcan0 244#00000001D0
(1606859828.042029) vcan0 166#D0320018
(1606859828.044215) vcan0 158#0000000000000019
(1606859828.044250) vcan0 161#000005500108001C
(1606859828.044261) vcan0 191#010090A1410003
(1606859828.044270) vcan0 133#00000000A7
(1606859828.044280) vcan0 136#000200000000002A
(1606859828.045364) vcan0 13A#0000000000000028
(1606859828.045387) vcan0 13F#000000050000002E
(1606859828.045396) vcan0 164#0000C01AA8000004
(1606859828.045405) vcan0 17C#0000000010000021
(1606859828.045414) vcan0 18E#00006B
(1606859828.046505) vcan0 1CF#80050000003C
(1606859828.046521) vcan0 1DC#02000039
(1606859828.046530) vcan0 183#0000000800001021
(1606859828.047619) vcan0 143#6B6B00E0
(1606859828.048720) vcan0 333#0000000000000F
(1606859828.049850) vcan0 095#800007F400000017
(1606859828.050984) vcan0 1A4#0000000800000010
(1606859828.051023) vcan0 1AA#7FFF000000006810
(1606859828.051039) vcan0 1B0#000F0000000157
(1606859828.051053) vcan0 1D0#000000000000000A
(1606859828.052173) vcan0 166#D0320027
(1606859828.053346) vcan0 158#0000000000000028
(1606859828.054531) vcan0 161#000005500108002B
(1606859828.054578) vcan0 191#010090A1410012
(1606859828.054589) vcan0 133#00000000B6
(1606859828.054599) vcan0 136#0002000000000039
(1606859828.054608) vcan0 13A#0000000000000037
(1606859828.055773) vcan0 13F#000000050000003D
(1606859828.055853) vcan0 164#0000C01AA8000013
(1606859828.055868) vcan0 17C#0000000010000030
(1606859828.055879) vcan0 18E#00007A
(1606859828.055919) vcan0 294#040B0002CF5A002C
(1606859828.055930) vcan0 21E#03E8374522062F
(1606859828.057029) vcan0 183#0000000D0000103B
(1606859828.057439) vcan0 244#00000001F9
(1606859828.058141) vcan0 143#6B6B00FF
(1606859828.059318) vcan0 095#800007F400000026
(1606859828.061596) vcan0 039#000C
(1606859828.062739) vcan0 166#D0320036
(1606859828.063855) vcan0 158#0000000000000037
(1606859828.063889) vcan0 161#000005500108003A
(1606859828.063899) vcan0 191#010090A1410021
(1606859828.065002) vcan0 133#0000000089
(1606859828.065042) vcan0 136#000200000000000C
(1606859828.065053) vcan0 13A#000000000000000A
(1606859828.065075) vcan0 13F#0000000500000000
(1606859828.065094) vcan0 164#0000C01AA8000022
(1606859828.066206) vcan0 17C#0000000010000003
(1606859828.066244) vcan0 18E#00004D
(1606859828.066257) vcan0 1CF#80050000000F
(1606859828.066271) vcan0 1DC#0200000C
(1606859828.066286) vcan0 320#000003
(1606859828.066298) vcan0 324#7465000000000E0B
(1606859828.067390) vcan0 37C#FD00FD00097F000B
(1606859828.067424) vcan0 183#0000000900001002
(1606859828.067437) vcan0 40C#033133383439000D
(1606859828.067450) vcan0 454#23EF09
(1606859828.068555) vcan0 143#6B6B00C2
(1606859828.069690) vcan0 095#800007F400000035
(1606859828.070824) vcan0 1A4#000000080000002F
(1606859828.070873) vcan0 1AA#7FFF000000006720
(1606859828.070889) vcan0 1B0#000F0000000166
(1606859828.070904) vcan0 1D0#000000000000000A
(1606859828.072864) vcan0 244#0000000125
(1606859828.073091) vcan0 166#D0320009
(1606859828.074210) vcan0 158#000000000000000A
(1606859828.074245) vcan0 161#000005500108000D
(1606859828.074260) vcan0 191#010090A1410030
(1606859828.074274) vcan0 18E#00005C
(1606859828.074286) vcan0 133#0000000098
(1606859828.075386) vcan0 136#000200000000001B
(1606859828.075427) vcan0 13A#0000000000000019
(1606859828.075448) vcan0 039#001B
(1606859828.075461) vcan0 13F#000000050000001F
(1606859828.075477) vcan0 164#0000C01AA8000031
(1606859828.075496) vcan0 17C#0000000010000012
(1606859828.077719) vcan0 183#0000000600001014
(1606859828.077765) vcan0 143#6B6B00D1
(1606859828.079964) vcan0 095#800007F400000008
(1606859828.082230) vcan0 166#D0320018
(1606859828.083139) vcan0 244#0000000167
(1606859828.083350) vcan0 158#0000000000000019
(1606859828.084458) vcan0 161#000005500108001C
(1606859828.084489) vcan0 191#010090A1410003
(1606859828.084500) vcan0 164#0000C01AA8000004
(1606859828.084509) vcan0 133#00000000A7
(1606859828.084518) vcan0 136#000200000000002A
(1606859828.085627) vcan0 13A#0000000000000028
(1606859828.085665) vcan0 13F#000000050000002E
(1606859828.085681) vcan0 17C#0000000010000021
(1606859828.085695) vcan0 18E#00006B
(1606859828.085708) vcan0 1CF#80050000001E
(1606859828.085737) vcan0 1DC#0200001B
(1606859828.086835) vcan0 183#0000000C0000102D
(1606859828.087961) vcan0 143#6B6B00E0
(1606859828.090262) vcan0 095#800007F400000017
(1606859828.090323) vcan0 039#002A
(1606859828.090344) vcan0 1A4#000000080000003E
(1606859828.090360) vcan0 1AA#7FFF00000000673F
(1606859828.091485) vcan0 1B0#000F0000000175
(1606859828.091544) vcan0 1D0#000000000000000A
(1606859828.092655) vcan0 166#D0320027
(1606859828.093793) vcan0 158#0000000000000028
(1606859828.093837) vcan0 161#000005500108002B
(1606859828.093852) vcan0 191#010090A1410012
(1606859828.094975) vcan0 133#00000000B6
(1606859828.095068) vcan0 136#0002000000000039
(1606859828.095085) vcan0 13A#0000000000000037
(1606859828.095101) vcan0 13F#000000050000003D
(1606859828.095116) vcan0 164#0000C01AA8000013
(1606859828.096223) vcan0 17C#0000000010000030
(1606859828.096268) vcan0 18E#00007A
(1606859828.096282) vcan0 294#040B0002CF5A003B
(1606859828.096296) vcan0 21E#03E8374522063E
(1606859828.096311) vcan0 309#0000000000000093
(1606859828.097426) vcan0 428#01040000521C10
(1606859828.097469) vcan0 405#000004000000001A
(1606859828.097486) vcan0 183#000000090000103F
(1606859828.097503) vcan0 143#6B6B00FF
(1606859828.098558) vcan0 244#000000017D
(1606859828.099692) vcan0 095#800007F400000026
(1606859828.102975) vcan0 166#D0320036
(1606859828.104105) vcan0 158#0000000000000037
(1606859828.104142) vcan0 161#000005500108003A
(1606859828.104153) vcan0 191#010090A1410021
(1606859828.104161) vcan0 039#0039
(1606859828.104170) vcan0 133#0000000089
(1606859828.105264) vcan0 136#000200000000000C
(1606859828.105297) vcan0 13A#000000000000000A
(1606859828.105308) vcan0 13F#0000000500000000
(1606859828.105328) vcan0 164#0000C01AA8000022
(1606859828.105338) vcan0 17C#0000000010000003
(1606859828.106438) vcan0 18E#00004D
(1606859828.106469) vcan0 1CF#80050000002D
(1606859828.106483) vcan0 1DC#0200002A
(1606859828.106503) vcan0 183#0000000E0000100D
(1606859828.107613) vcan0 143#6B6B00C2
(1606859828.109783) vcan0 095#800007F400000035
(1606859828.110913) vcan0 1A4#0000000800000001
(1606859828.110943) vcan0 1AA#7FFF000000006801
(1606859828.110954) vcan0 1B0#000F0000000148
(1606859828.110964) vcan0 1D0#000000000000000A
(1606859828.112074) vcan0 166#D0320009
(1606859828.113965) vcan0 244#00000001F7
(1606859828.113993) vcan0 188#00000000
(1606859828.114274) vcan0 158#000000000000000A
(1606859828.114314) vcan0 161#000005500108000D
(1606859828.114330) vcan0 191#010090A1410030
(1606859828.114345) vcan0 133#0000000098
(1606859828.114358) vcan0 136#000200000000001B
(1606859828.115457) vcan0 13A#0000000000000019
(1606859828.115492) vcan0 13F#000000050000001F
(1606859828.115502) vcan0 164#0000C01AA8000031
(1606859828.115511) vcan0 17C#0000000010000012
(1606859828.115519) vcan0 18E#00005C
(1606859828.117729) vcan0 183#0000000A00001010
(1606859828.117779) vcan0 039#000C
(1606859828.117796) vcan0 143#6B6B00D1
(1606859828.117812) vcan0 305#8017
(1606859828.119974) vcan0 095#800007F400000008
(1606859828.122225) vcan0 166#D0320018
(1606859828.123354) vcan0 158#0000000000000019
(1606859828.124423) vcan0 244#00000001CB
(1606859828.124514) vcan0 161#000005500108001C
(1606859828.124551) vcan0 191#010090A1410003
(1606859828.124561) vcan0 133#00000000A7
(1606859828.124570) vcan0 136#000200000000002A
(1606859828.124580) vcan0 13A#0000000000000028
(1606859828.125748) vcan0 13F#000000050000002E
(1606859828.125810) vcan0 164#0000C01AA8000004
(1606859828.125821) vcan0 17C#0000000010000021
(1606859828.125831) vcan0 18E#00006B
(1606859828.125840) vcan0 1CF#80050000003C
(1606859828.125850) vcan0 1DC#02000039
(1606859828.127196) vcan0 183#0000000700001022
(1606859828.128341) vcan0 143#6B6B00E0
(1606859828.129462) vcan0 095#800007F400000017
(1606859828.130579) vcan0 1A4#0000000800000010
(1606859828.130611) vcan0 1AA#7FFF000000006810
(1606859828.130621) vcan0 1B0#000F0000000157
(1606859828.131722) vcan0 1D0#000000000000000A
(1606859828.132866) vcan0 166#D0320027
(1606859828.134028) vcan0 158#0000000000000028
(1606859828.134068) vcan0 161#000005500108002B
(1606859828.134079) vcan0 191#010090A1410012
(1606859828.134088) vcan0 133#00000000B6
(1606859828.135183) vcan0 136#0002000000000039
(1606859828.135212) vcan0 039#001B
(1606859828.135223) vcan0 13A#0000000000000037
(1606859828.135231) vcan0 13F#000000050000003D
(1606859828.135240) vcan0 164#0000C01AA8000013
(1606859828.136352) vcan0 17C#0000000010000030
(1606859828.136384) vcan0 18E#00007A
(1606859828.136395) vcan0 294#040B0002CF5A000E
(1606859828.136405) vcan0 21E#03E83745220601
(1606859828.137501) vcan0 183#0000000D0000103B
(1606859828.137533) vcan0 143#6B6B00FF
(1606859828.139729) vcan0 095#800007F400000026
(1606859828.139900) vcan0 244#000000016E
(1606859828.143060) vcan0 166#D0320036
(1606859828.144219) vcan0 158#0000000000000037
(1606859828.144250) vcan0 161#000005500108003A
(1606859828.144260) vcan0 191#010090A1410021
(1606859828.144270) vcan0 164#0000C01AA8000022
(1606859828.144279) vcan0 133#0000000089
(1606859828.145384) vcan0 136#000200000000000C
(1606859828.145416) vcan0 13A#000000000000000A
(1606859828.145427) vcan0 13F#0000000500000000
(1606859828.145436) vcan0 17C#0000000010000003
(1606859828.145446) vcan0 18E#00004D
(1606859828.146547) vcan0 1CF#80050000000F
(1606859828.146605) vcan0 1DC#0200000C
(1606859828.146622) vcan0 183#0000000900001002
(1606859828.147773) vcan0 039#002A
(1606859828.147813) vcan0 143#6B6B00C2
(1606859828.148965) vcan0 333#0000000000001E
(1606859828.150093) vcan0 095#800007F400000035
(1606859828.150150) vcan0 1A4#000000080000002F
(1606859828.151319) vcan0 1AA#7FFF000000006720
(1606859828.151369) vcan0 1B0#000F0000000166
(1606859828.151389) vcan0 1D0#000000000000000A
(1606859828.152537) vcan0 166#D0320009
(1606859828.153712) vcan0 158#000000000000000A
(1606859828.153898) vcan0 161#000005500108000D
(1606859828.153939) vcan0 191#010090A1410030
(1606859828.153949) vcan0 133#0000000098
(1606859828.155116) vcan0 136#000200000000001B
(1606859828.155182) vcan0 13A#0000000000000019
(1606859828.155193) vcan0 13F#000000050000001F
(1606859828.155219) vcan0 164#0000C01AA8000031
(1606859828.155239) vcan0 17C#0000000010000012
(1606859828.155380) vcan0 244#00000001DA
(1606859828.156350) vcan0 18E#00005C
(1606859828.157476) vcan0 183#0000000600001014
(1606859828.157512) vcan0 143#6B6B00D1
(1606859828.159700) vcan0 095#800007F400000008
(1606859828.162989) vcan0 166#D0320018
(1606859828.164139) vcan0 158#0000000000000019
(1606859828.164171) vcan0 161#000005500108001C
(1606859828.164183) vcan0 191#010090A1410003
(1606859828.164193) vcan0 164#0000C01AA8000004
(1606859828.164217) vcan0 133#00000000A7
(1606859828.165336) vcan0 136#000200000000002A
(1606859828.165359) vcan0 13A#0000000000000028
(1606859828.165368) vcan0 13F#000000050000002E
(1606859828.165377) vcan0 17C#0000000010000021
(1606859828.165385) vcan0 18E#00006B
(1606859828.166487) vcan0 1CF#80050000001E
(1606859828.166518) vcan0 1DC#0200001B
(1606859828.166529) vcan0 320#000012
(1606859828.166538) vcan0 324#7465000000000E1A
(1606859828.166547) vcan0 37C#FD00FD00097F001A
(1606859828.166556) vcan0 039#0039
(1606859828.167658) vcan0 183#0000000C0000102D
(1606859828.167694) vcan0 143#6B6B00E0
(1606859828.169902) vcan0 095#800007F400000017
(1606859828.170798) vcan0 244#0000000185
(1606859828.171028) vcan0 1A4#000000080000003E
(1606859828.171050) vcan0 1AA#7FFF00000000673F
(1606859828.171061) vcan0 1B0#000F0000000175
(1606859828.171070) vcan0 1D0#000000000000000A
(1606859828.172167) vcan0 166#D0320027
(1606859828.173311) vcan0 158#0000000000000028
(1606859828.174448) vcan0 161#000005500108002B
(1606859828.174488) vcan0 191#010090A1410012
(1606859828.174504) vcan0 133#00000000B6
(1606859828.174519) vcan0 136#0002000000000039
(1606859828.174548) vcan0 13A#0000000000000037
(1606859828.175657) vcan0 13F#000000050000003D
(1606859828.175703) vcan0 164#0000C01AA9000012
(1606859828.175720) vcan0 17C#0000000010000030
(1606859828.175734) vcan0 18E#00007A
(1606859828.175746) vcan0 294#040B0002CF5A001D
(1606859828.176853) vcan0 21E#03E83745220610
(1606859828.177976) vcan0 183#000000090000103F
(1606859828.178002) vcan0 143#6B6B00FF
(1606859828.179115) vcan0 039#000C
(1606859828.180248) vcan0 095#800007F400000026
(1606859828.181072) vcan0 244#0000000134
(1606859828.182467) vcan0 166#D0320036
(1606859828.183630) vcan0 158#0000000000000037
(1606859828.183685) vcan0 161#000005500108003A
(1606859828.183704) vcan0 191#010090A1410021
(1606859828.184809) vcan0 164#0000C01AA9000021
(1606859828.184841) vcan0 133#0000000089
(1606859828.184851) vcan0 136#000200000000000C
(1606859828.184861) vcan0 13A#000000000000000A
(1606859828.184870) vcan0 13F#0000000500000000
(1606859828.185981) vcan0 17C#0000000010000003
(1606859828.186036) vcan0 18E#00004D
(1606859828.186049) vcan0 1CF#80050000002D
(1606859828.186058) vcan0 1DC#0200002A
(1606859828.187221) vcan0 183#0000000E0000100D
(1606859828.188444) vcan0 143#6B6B00C2
(1606859828.189688) vcan0 095#800007F400000035
(1606859828.190844) vcan0 1A4#0000000800000001
(1606859828.190880) vcan0 1AA#7FFF000000006801
(1606859828.190892) vcan0 1B0#000F0000000148
(1606859828.190901) vcan0 1D0#000000000000000A
(1606859828.193101) vcan0 166#D0320009
(1606859828.194222) vcan0 158#000000000000000A
(1606859828.194256) vcan0 161#000005500108000D
(1606859828.194267) vcan0 191#010090A1410030
(1606859828.194276) vcan0 039#001B
(1606859828.194285) vcan0 133#0000000098
(1606859828.194295) vcan0 136#000200000000001B
(1606859828.195398) vcan0 13A#0000000000000019
(1606859828.195434) vcan0 13F#000000050000001F
(1606859828.195445) vcan0 164#0000C01AA8000031
(1606859828.195453) vcan0 17C#0000000010000012
(1606859828.195462) vcan0 18E#00005C
(1606859828.196505) vcan0 244#00000001EB
(1606859828.196647) vcan0 309#00000000000000A2
(1606859828.197761) vcan0 183#0000000A00001010
(1606859828.197790) vcan0 143#6B6B00D1
(1606859828.199962) vcan0 095#800007F400000008
(1606859828.202176) vcan0 166#D0320018
(1606859828.203293) vcan0 158#0000000000000019
(1606859828.204465) vcan0 161#000005500108001C
(1606859828.204507) vcan0 191#010090A1410003
(1606859828.204518) vcan0 133#00000000A7
(1606859828.204528) vcan0 136#000200000000002A
(1606859828.204537) vcan0 13A#0000000000000028
(1606859828.205640) vcan0 13F#000000050000002E
(1606859828.205672) vcan0 164#0000C01AA8000004
(1606859828.205683) vcan0 17C#0000000010000021
(1606859828.205692) vcan0 18E#00006B
(1606859828.205711) vcan0 1CF#80050000003C
(1606859828.205720) vcan0 1DC#02000039
(1606859828.206815) vcan0 183#0000000700001022
(1606859828.207938) vcan0 143#6B6B00E0
(1606859828.209038) vcan0 039#002A
(1606859828.210141) vcan0 095#800007F400000017
(1606859828.210173) vcan0 1A4#0000000800000010
(1606859828.211274) vcan0 1AA#7FFF000000006810
(1606859828.211312) vcan0 1B0#000F0000000157
(1606859828.211323) vcan0 1D0#000000000000000A
(1606859828.211928) vcan0 244#000000019C
(1606859828.212422) vcan0 166#D0320027
(1606859828.213555) vcan0 158#0000000000000028
(1606859828.213589) vcan0 161#000005500108002B
(1606859828.214727) vcan0 191#010090A1410012
(1606859828.214766) vcan0 133#00000000B6
(1606859828.214777) vcan0 136#0002000000000039
(1606859828.214786) vcan0 13A#0000000000000037
(1606859828.214796) vcan0 13F#000000050000003D
(1606859828.215895) vcan0 164#0000C01AA8000013
(1606859828.215925) vcan0 17C#0000000010000030
(1606859828.215935) vcan0 18E#00007A
(1606859828.215944) vcan0 294#040B0002CF5A002C
(1606859828.215953) vcan0 21E#03E8374522062F
(1606859828.217063) vcan0 183#0000000500001033
(1606859828.218194) vcan0 143#6B6B00FF
(1606859828.219372) vcan0 095#800007F400000026
(1606859828.222245) vcan0 244#000000016C
(1606859828.222776) vcan0 166#D0320036
(1606859828.222812) vcan0 039#0039
(1606859828.223898) vcan0 158#0000000000000037
(1606859828.223924) vcan0 161#000005500108003A
(1606859828.223934) vcan0 191#010090A1410021
(1606859828.223942) vcan0 305#8026
(1606859828.225025) vcan0 133#0000000089
(1606859828.225068) vcan0 136#000200000000000C
(1606859828.225086) vcan0 13A#000000000000000A
(1606859828.225100) vcan0 13F#0000000500000000
(1606859828.225114) vcan0 164#0000C01AA8000022
(1606859828.226224) vcan0 17C#0000000010000003
(1606859828.226259) vcan0 18E#00004D
(1606859828.226274) vcan0 1CF#80050000000F
(1606859828.226288) vcan0 1DC#0200000C
(1606859828.227409) vcan0 183#0000000300001008
(1606859828.227447) vcan0 143#6B6B00C2
(1606859828.229621) vcan0 095#800007F400000035
(1606859828.230738) vcan0 1A4#000000080000002F
(1606859828.230785) vcan0 1AA#7FFF000000006720
(1606859828.230805) vcan0 1B0#000F0000000166
(1606859828.230820) vcan0 1D0#000000000000000A
(1606859828.233047) vcan0 166#D0320009
(1606859828.234168) vcan0 158#000000000000000A
(1606859828.234199) vcan0 161#000005500108000D
(1606859828.234209) vcan0 191#010090A1410030
(1606859828.234218) vcan0 133#0000000098
(1606859828.234227) vcan0 136#000200000000001B
(1606859828.235336) vcan0 13A#0000000000000019
(1606859828.235385) vcan0 13F#000000050000001F
(1606859828.235457) vcan0 164#0000C01AA8000031
(1606859828.235480) vcan0 17C#0000000010000012
(1606859828.235494) vcan0 18E#00005C
(1606859828.237690) vcan0 244#0000000180
(1606859828.237694) vcan0 039#000C
(1606859828.237736) vcan0 183#0000000A00001010
(1606859828.237755) vcan0 143#6B6B00D1
(1606859828.239978) vcan0 095#800007F400000008
(1606859828.242209) vcan0 166#D0320018
(1606859828.243328) vcan0 158#0000000000000019
(1606859828.244451) vcan0 161#000005500108001C
(1606859828.244482) vcan0 191#010090A1410003
(1606859828.244493) vcan0 133#00000000A7
(1606859828.244502) vcan0 136#000200000000002A
(1606859828.244511) vcan0 13A#0000000000000028
(1606859828.245614) vcan0 13F#000000050000002E
(1606859828.245645) vcan0 164#0000C01AA8000004
(1606859828.245655) vcan0 17C#0000000010000021
(1606859828.245664) vcan0 18E#00006B
(1606859828.245674) vcan0 1CF#80050000001E
(1606859828.245683) vcan0 1DC#0200001B
(1606859828.246836) vcan0 183#0000000700001022
(1606859828.247970) vcan0 143#6B6B00E0
(1606859828.249100) vcan0 333#0000000000002D
(1606859828.250227) vcan0 095#800007F400000017
(1606859828.250277) vcan0 1A4#000000080000003E
(1606859828.251399) vcan0 1AA#7FFF00000000673F
(1606859828.251450) vcan0 1B0#000F0000000175
(1606859828.251468) vcan0 1D0#000000000000000A
(1606859828.251482) vcan0 039#001B
(1606859828.252590) vcan0 166#D0320027
(1606859828.253149) vcan0 244#000000012E
(1606859828.253802) vcan0 158#0000000000000028
(1606859828.253858) vcan0 161#000005500108002B
(1606859828.253870) vcan0 191#010090A1410012
(1606859828.255013) vcan0 133#00000000B6
(1606859828.255083) vcan0 136#0002000000000039
(1606859828.255096) vcan0 13A#0000000000000037
(1606859828.255106) vcan0 13F#000000050000003D
(1606859828.255117) vcan0 164#0000C01AA8000013
(1606859828.256238) vcan0 17C#0000000010000030
(1606859828.256303) vcan0 18E#00007A
(1606859828.256314) vcan0 294#040B0002CF5A003B
(1606859828.256323) vcan0 21E#03E8374522063E
(1606859828.257423) vcan0 183#0000000500001033
(1606859828.257457) vcan0 143#6B6B00FF
(1606859828.259633) vcan0 095#800007F400000026
(1606859828.262940) vcan0 166#D0320036
(1606859828.264094) vcan0 158#0000000000000037
(1606859828.264147) vcan0 161#000005500108003A
(1606859828.264167) vcan0 191#010010A1410029
(1606859828.264182) vcan0 133#0000000089
(1606859828.264197) vcan0 136#000200000000000C
(1606859828.265349) vcan0 13A#000000000000000A
(1606859828.265422) vcan0 13F#0000000500000000
(1606859828.265443) vcan0 164#0000C01AA8000022
(1606859828.265460) vcan0 17C#0000000010000003
(1606859828.265486) vcan0 18E#00004D
(1606859828.265529) vcan0 1CF#80050000002D
(1606859828.266641) vcan0 1DC#0200002A
(1606859828.266692) vcan0 320#000021
(1606859828.266708) vcan0 324#7465000000000E29
(1606859828.266724) vcan0 37C#FD00FD00097F0029
(1606859828.266742) vcan0 183#0000000B00001000
(1606859828.267853) vcan0 143#6B6B00C2
(1606859828.268662) vcan0 244#0000000190
(1606859828.270088) vcan0 095#800007F400000035
(1606859828.270136) vcan0 1A4#0000000800000001
(1606859828.271244) vcan0 1AA#7FFF000000006801
(1606859828.271293) vcan0 1B0#000F0000000148
(1606859828.271317) vcan0 1D0#000000000000000A
(1606859828.271330) vcan0 039#002A
(1606859828.272389) vcan0 166#D0320009
(1606859828.273491) vcan0 158#000000000000000A
(1606859828.273522) vcan0 161#000005500108000D
(1606859828.274620) vcan0 191#010010A1410038
(1606859828.274656) vcan0 133#0000000098
(1606859828.274668) vcan0 136#000200000000001B
(1606859828.274681) vcan0 13A#0000000000000019
(1606859828.274692) vcan0 13F#000000050000001F
(1606859828.275782) vcan0 164#0000C01AA8000031
(1606859828.275811) vcan0 17C#0000000010000012
(1606859828.275821) vcan0 18E#00005C
(1606859828.276908) vcan0 183#0000000800001012
(1606859828.278001) vcan0 143#6B6B00D1
(1606859828.280153) vcan0 095#800007F400000008
(1606859828.282313) vcan0 166#D0320018
(1606859828.283405) vcan0 158#0000000000000019
(1606859828.283992) vcan0 244#0000000114
(1606859828.284492) vcan0 161#000005500108001C
(1606859828.284506) vcan0 191#010010A141000B
(1606859828.284511) vcan0 039#0039
(1606859828.284516) vcan0 133#00000000A7
(1606859828.284520) vcan0 136#000200000000002A
(1606859828.284525) vcan0 13A#0000000000000028
(1606859828.285632) vcan0 13F#000000050000002E
(1606859828.285697) vcan0 164#0000C01AA8000004
(1606859828.285706) vcan0 17C#0000000010000021
(1606859828.285711) vcan0 18E#00006B
(1606859828.285716) vcan0 1CF#80050000003C
(1606859828.286880) vcan0 1DC#02000039
(1606859828.286950) vcan0 183#0000000D0000102C
(1606859828.288085) vcan0 143#6B6B00E0
(1606859828.290373) vcan0 095#800007F400000017
(1606859828.290392) vcan0 1A4#0000000800000010
(1606859828.290398) vcan0 1AA#7FFF000000006810
(1606859828.291467) vcan0 1B0#000F0000000157
(1606859828.291480) vcan0 1D0#000000000000000A
(1606859828.292559) vcan0 166#D0320027
(1606859828.293629) vcan0 158#0000000000000028
(1606859828.293647) vcan0 161#000005500108002B
(1606859828.294269) vcan0 244#000000014A
(1606859828.294722) vcan0 191#010010A141001A
(1606859828.294740) vcan0 133#00000000B6
(1606859828.294745) vcan0 136#0002000000000039
(1606859828.294750) vcan0 13A#0000000000000037
(1606859828.294755) vcan0 13F#000000050000003D
(1606859828.295836) vcan0 164#0000C01AA8000013
(1606859828.295852) vcan0 17C#0000000010000030
(1606859828.295858) vcan0 18E#00007A
(1606859828.295863) vcan0 294#040B0002CF5A000E
(1606859828.296980) vcan0 21E#03E83745220601
(1606859828.296999) vcan0 309#00000000000000B1
(1606859828.297005) vcan0 183#0000001100001036
(1606859828.298078) vcan0 143#6B6B00FF
(1606859828.299169) vcan0 039#000C
(1606859828.300250) vcan0 095#800007F400000026
(1606859828.302406) vcan0 166#D0320036
(1606859828.303504) vcan0 158#0000000000000037
(1606859828.303528) vcan0 161#000005500108003A
(1606859828.304628) vcan0 191#010010A1410029
(1606859828.304645) vcan0 164#0000C01AA8000022
(1606859828.304651) vcan0 133#0000000089
(1606859828.304656) vcan0 136#000200000000000C
(1606859828.304661) vcan0 13A#000000000000000A
(1606859828.305732) vcan0 13F#0000000500000000
(1606859828.305746) vcan0 17C#0000000010000003
(1606859828.305751) vcan0 18E#00004D
(1606859828.305758) vcan0 1CF#80050000000F
(1606859828.305776) vcan0 1DC#0200000C
(1606859828.306847) vcan0 183#0000000C0000100F
(1606859828.307933) vcan0 143#6B6B00C2
(1606859828.309565) vcan0 244#00000001AF
(1606859828.310084) vcan0 095#800007F400000035
(1606859828.310102) vcan0 1A4#000000080000002F
(1606859828.311180) vcan0 1AA#7FFF000000006720
(1606859828.311196) vcan0 1B0#000F0000000166
(1606859828.311202) vcan0 1D0#000000000000000A
(1606859828.312321) vcan0 166#D0320009
(1606859828.313415) vcan0 158#000000000000000A
(1606859828.314504) vcan0 161#000005500108000D
(1606859828.314521) vcan0 191#010010A1410038
(1606859828.314527) vcan0 039#001B
(1606859828.314532) vcan0 133#0000000098
(1606859828.314537) vcan0 136#000200000000001B
(1606859828.314542) vcan0 13A#0000000000000019
(1606859828.315624) vcan0 13F#000000050000001F
(1606859828.315646) vcan0 164#0000C01AA8000031
(1606859828.315655) vcan0 17C#0000000010000012
(1606859828.315662) vcan0 18E#00005C
(1606859828.317818) vcan0 183#0000001000001019
(1606859828.317850) vcan0 143#6B6B00D1
(1606859828.320076) vcan0 095#800007F400000008
(1606859828.322332) vcan0 166#D0320018
(1606859828.323422) vcan0 158#0000000000000019
(1606859828.324515) vcan0 161#000005500108001C
(1606859828.324551) vcan0 191#010010A141000B
(1606859828.324556) vcan0 133#00000000A7
(1606859828.324560) vcan0 136#000200000000002A
(1606859828.324565) vcan0 13A#0000000000000028
(1606859828.324991) vcan0 244#00000001A3
(1606859828.325639) vcan0 13F#000000050000002E
(1606859828.325661) vcan0 164#0000C01AA8000004
(1606859828.325667) vcan0 17C#0000000010000021
(1606859828.325674) vcan0 18E#00006B
(1606859828.325680) vcan0 1CF#80050000001E
(1606859828.325685) vcan0 1DC#0200001B
(1606859828.326761) vcan0 183#0000000C0000102D
(1606859828.327847) vcan0 143#6B6B00E0
(1606859828.327864) vcan0 039#002A
(1606859828.328943) vcan0 305#8035
(1606859828.330029) vcan0 095#800007F400000017
(1606859828.331155) vcan0 1A4#000000080000003E
(1606859828.331177) vcan0 1AA#7FFF00000000673F
(1606859828.331185) vcan0 1B0#000F0000000175
(1606859828.331192) vcan0 1D0#000000000000000A
(1606859828.332269) vcan0 166#D0320027
(1606859828.333360) vcan0 158#0000000000000028
(1606859828.334444) vcan0 161#000005500108002B
(1606859828.334460) vcan0 191#010010A141001A
(1606859828.334466) vcan0 133#00000000B6
(1606859828.334471) vcan0 136#0002000000000039
(1606859828.334476) vcan0 13A#0000000000000037
(1606859828.335206) vcan0 244#000000011A
(1606859828.335581) vcan0 13F#000000050000003D
(1606859828.335602) vcan0 164#0000C01AA8000013
(1606859828.335609) vcan0 17C#0000000010000030
(1606859828.335617) vcan0 18E#00007A
(1606859828.335624) vcan0 294#040B0002CF5A001D
(1606859828.336700) vcan0 21E#03E83745220610
(1606859828.337789) vcan0 183#000000090000103F
(1606859828.337808) vcan0 143#6B6B00FF
(1606859828.339945) vcan0 095#800007F400000026
(1606859828.342111) vcan0 166#D0320036
(1606859828.343217) vcan0 039#0039
(1606859828.343264) vcan0 158#0000000000000037
(1606859828.344354) vcan0 161#000005500108003A
(1606859828.344379) vcan0 191#010010A1410029
(1606859828.344386) vcan0 133#0000000089
(1606859828.344392) vcan0 136#000200000000000C
(1606859828.345470) vcan0 13A#000000000000000A
(1606859828.345488) vcan0 13F#0000000500000000
(1606859828.345495) vcan0 164#0000C01AA9000021
(1606859828.345501) vcan0 17C#0000000010000003
(1606859828.345506) vcan0 18E#00004D
(1606859828.345512) vcan0 1CF#80050000002D
(1606859828.346624) vcan0 1DC#0200002A
(1606859828.346653) vcan0 183#0000000E0000100D
(1606859828.347751) vcan0 143#6B6B00C2
(1606859828.348925) vcan0 333#0000000000003C
(1606859828.350053) vcan0 095#800007F400000035
(1606859828.350097) vcan0 1A4#0000000800000001
(1606859828.350575) vcan0 244#0000000195
(1606859828.351249) vcan0 1AA#7FFF000000006801
(1606859828.351296) vcan0 1B0#000F0000000148
(1606859828.351310) vcan0 1D0#000000000000000A
(1606859828.352454) vcan0 166#D0320009
(1606859828.353588) vcan0 158#000000000000000A
(1606859828.353654) vcan0 161#000005500108000D
(1606859828.354818) vcan0 191#010010A1410038
(1606859828.354913) vcan0 133#0000000098
(1606859828.354929) vcan0 136#000200000000001B
(1606859828.354942) vcan0 13A#0000000000000019
(1606859828.354957) vcan0 13F#000000050000001F
(1606859828.354974) vcan0 164#0000C01AA8000031
(1606859828.356111) vcan0 17C#0000000010000012
(1606859828.356169) vcan0 18E#00005C
(1606859828.356186) vcan0 039#000C
(1606859828.357292) vcan0 183#0000000A00001010
(1606859828.357325) vcan0 143#6B6B00D1
(1606859828.359513) vcan0 095#800007F400000008
(1606859828.362808) vcan0 166#D0320018
(1606859828.363949) vcan0 158#0000000000000019
(1606859828.363983) vcan0 161#000005500108001C
(1606859828.363994) vcan0 191#010010A141000B
(1606859828.364003) vcan0 133#00000000A7
(1606859828.365121) vcan0 136#000200000000002A
(1606859828.365139) vcan0 13A#0000000000000028
(1606859828.365148) vcan0 13F#000000050000002E
(1606859828.365157) vcan0 164#0000C01AA8000004
(1606859828.365166) vcan0 17C#0000000010000021
(1606859828.366003) vcan0 244#000000011E
(1606859828.366267) vcan0 18E#00006B
(1606859828.366300) vcan0 1CF#80050000003C
(1606859828.366316) vcan0 1DC#02000039
(1606859828.366330) vcan0 320#000030
(1606859828.366344) vcan0 324#7465000000000E38
(1606859828.366359) vcan0 37C#FD00FD00097F0038
(1606859828.367468) vcan0 40C#0000000004000013
(1606859828.367505) vcan0 183#0000000F0000102A
(1606859828.367522) vcan0 454#23EF18
(1606859828.367534) vcan0 143#6B6B00E0
(1606859828.369761) vcan0 095#800007F400000017
(1606859828.370883) vcan0 1A4#0000000800000010
(1606859828.370914) vcan0 1AA#7FFF000000006810
(1606859828.370924) vcan0 1B0#000F0000000157
(1606859828.370934) vcan0 1D0#000000000000000A
(1606859828.372013) vcan0 166#D0320027
(1606859828.374276) vcan0 158#0000000000000028
(1606859828.374309) vcan0 161#000005500108002B
(1606859828.374320) vcan0 191#010010A141001A
(1606859828.374330) vcan0 133#00000000B6
(1606859828.374339) vcan0 136#0002000000000039
(1606859828.375473) vcan0 13A#0000000000000037
(1606859828.375508) vcan0 13F#000000050000003D
(1606859828.375519) vcan0 164#0000C01AA9000012
(1606859828.375528) vcan0 17C#0000000010000030
(1606859828.375538) vcan0 18E#00007A
(1606859828.375547) vcan0 294#040B0002CF5A002C
(1606859828.376362) vcan0 244#00000001B4
(1606859828.376656) vcan0 039#001B
(1606859828.376690) vcan0 21E#03E8374522062F
(1606859828.377800) vcan0 183#0000001300001034
(1606859828.377853) vcan0 143#6B6B00FF
(1606859828.380053) vcan0 095#800007F400000026
(1606859828.382263) vcan0 166#D0320036
(1606859828.383390) vcan0 158#0000000000000037
(1606859828.384522) vcan0 161#000005500108003A
(1606859828.384576) vcan0 191#010010A1410029
(1606859828.384601) vcan0 164#0000C01AA8000022
(1606859828.384621) vcan0 133#0000000089
(1606859828.384633) vcan0 136#000200000000000C
(1606859828.384654) vcan0 13A#000000000000000A
(1606859828.385754) vcan0 13F#0000000500000000
(1606859828.385781) vcan0 17C#0000000010000003
(1606859828.385791) vcan0 18E#00004D
(1606859828.385801) vcan0 1CF#80050000000F
(1606859828.385809) vcan0 1DC#0200000C
(1606859828.386896) vcan0 183#0000000E0000100D
(1606859828.388013) vcan0 143#6B6B00C2
(1606859828.390276) vcan0 095#800007F400000035
(1606859828.390331) vcan0 1A4#000000080000002F
(1606859828.390350) vcan0 1AA#7FFF000000006720
(1606859828.391503) vcan0 1B0#000F0000000166
(1606859828.391542) vcan0 1D0#000000000000000A
(1606859828.391848) vcan0 244#00000001D0
(1606859828.392654) vcan0 166#D0320009
(1606859828.393881) vcan0 158#000000000000000A
(1606859828.393944) vcan0 161#000005500108000D
(1606859828.393959) vcan0 191#010010A1410038
(1606859828.393975) vcan0 133#0000000098
(1606859828.395099) vcan0 136#000200000000001B
(1606859828.395164) vcan0 13A#0000000000000019
(1606859828.395176) vcan0 13F#000000050000001F
(1606859828.395185) vcan0 164#0000C01AA8000031
(1606859828.395194) vcan0 17C#0000000010000012
(1606859828.396301) vcan0 18E#00005C
(1606859828.396329) vcan0 309#0000000000000084
(1606859828.396339) vcan0 428#01040000521C2F
(1606859828.396348) vcan0 405#0000040000000029
(1606859828.396356) vcan0 039#002A
(1606859828.397459) vcan0 183#0000001200001017
(1606859828.397491) vcan0 143#6B6B00D1
(1606859828.399662) vcan0 095#800007F400000008
(1606859828.402170) vcan0 244#0000000143
(1606859828.402934) vcan0 166#D0320018
(1606859828.404055) vcan0 158#0000000000000019
(1606859828.404091) vcan0 161#000005500108001C
(1606859828.404106) vcan0 191#010010A141000B
(1606859828.404121) vcan0 164#0000C01AA8000004
(1606859828.404135) vcan0 133#00000000A7
(1606859828.405291) vcan0 136#000200000000002A
(1606859828.405329) vcan0 13A#0000000000000028
(1606859828.405341) vcan0 13F#000000050000002E
(1606859828.405350) vcan0 17C#0000000010000021
(1606859828.405360) vcan0 18E#00006B
(1606859828.406464) vcan0 1CF#80050000001E
(1606859828.406499) vcan0 1DC#0200001B
(1606859828.406510) vcan0 183#0000000D0000102C
(1606859828.407610) vcan0 143#6B6B00E0
(1606859828.409807) vcan0 095#800007F400000017
(1606859828.409849) vcan0 039#0039
(1606859828.410951) vcan0 1A4#000000080000003E
(1606859828.410986) vcan0 1AA#7FFF00000000683E
(1606859828.410997) vcan0 1B0#000F0000000175
(1606859828.411006) vcan0 1D0#000000000000000A
(1606859828.412103) vcan0 166#D0320027
(1606859828.413237) vcan0 158#0000000000000028
(1606859828.414379) vcan0 161#000005500108002B
(1606859828.414431) vcan0 191#010010A141001A
(1606859828.414448) vcan0 133#00000000B6
(1606859828.414462) vcan0 136#0002000000000039
(1606859828.414507) vcan0 13A#0000000000000037
(1606859828.415623) vcan0 13F#000000050000003D
(1606859828.415665) vcan0 164#0000C01AA8000013
(1606859828.415681) vcan0 17C#0000000010000030
(1606859828.415696) vcan0 18E#00007A
(1606859828.415720) vcan0 294#040B0002CF5A003B
(1606859828.416826) vcan0 21E#03E8374522063E
(1606859828.417573) vcan0 244#00000001DC
(1606859828.417992) vcan0 183#000000090000103F
(1606859828.418028) vcan0 143#6B6B00FF
(1606859828.420312) vcan0 095#800007F400000026
(1606859828.422589) vcan0 166#D0320036
(1606859828.423806) vcan0 158#0000000000000037
(1606859828.423845) vcan0 161#000005500108003A
(1606859828.423855) vcan0 191#010010A1410029
(1606859828.424983) vcan0 164#0000C01AA8000022
(1606859828.425014) vcan0 133#0000000089
(1606859828.425025) vcan0 136#000200000000000C
(1606859828.425034) vcan0 13A#000000000000000A
(1606859828.425043) vcan0 13F#0000000500000000
(1606859828.426144) vcan0 17C#0000000010000003
(1606859828.426174) vcan0 18E#00004D
(1606859828.426184) vcan0 039#000C
(1606859828.426193) vcan0 1CF#80050000002D
(1606859828.426202) vcan0 1DC#0200002A
(1606859828.427303) vcan0 183#0000000E0000100D
(1606859828.427334) vcan0 143#6B6B00C2
(1606859828.430590) vcan0 095#800007F400000035
(1606859828.430627) vcan0 1A4#0000000800000001
(1606859828.430637) vcan0 1AA#7FFF000000006801
(1606859828.430646) vcan0 1B0#000F0000000148
(1606859828.431744) vcan0 1D0#000000000000000A
(1606859828.432870) vcan0 166#D0320009
(1606859828.432911) vcan0 305#8008
(1606859828.433005) vcan0 244#00000001F7
(1606859828.434054) vcan0 158#000000000000000A
(1606859828.434101) vcan0 161#000005500108000D
(1606859828.434116) vcan0 191#010010A1410038
(1606859828.434131) vcan0 133#0000000098
(1606859828.435251) vcan0 136#000200000000001B
(1606859828.435306) vcan0 13A#0000000000000019
(1606859828.435318) vcan0 13F#000000050000001F
(1606859828.435328) vcan0 164#0000C01AA8000031
(1606859828.435337) vcan0 17C#0000000010000012
(1606859828.435345) vcan0 18E#00005C
(1606859828.437550) vcan0 183#0000000A00001010
(1606859828.437581) vcan0 143#6B6B00D1
(1606859828.439791) vcan0 095#800007F400000008
(1606859828.439840) vcan0 039#001B
(1606859828.442034) vcan0 166#D0320018
(1606859828.443313) vcan0 244#000000012E
(1606859828.444228) vcan0 158#0000000000000019
(1606859828.444270) vcan0 161#000005500108001C
(1606859828.444286) vcan0 191#010010A141000B
(1606859828.444298) vcan0 133#00000000A7
(1606859828.444307) vcan0 136#000200000000002A
(1606859828.445414) vcan0 13A#0000000000000028
(1606859828.445455) vcan0 13F#000000050000002E
(1606859828.445468) vcan0 164#0000C01AA8000004
(1606859828.445478) vcan0 17C#0000000010000021
(1606859828.445486) vcan0 18E#00006B
(1606859828.445495) vcan0 1CF#80050000003C
(1606859828.446638) vcan0 1DC#02000039
(1606859828.446671) vcan0 183#0000000F0000102A
(1606859828.447771) vcan0 143#6B6B00E0
(1606859828.448884) vcan0 333#0000000000000F
(1606859828.449962) vcan0 095#800007F400000017
(1606859828.451131) vcan0 1A4#0000000800000010
(1606859828.451169) vcan0 1AA#7FFF000000006810
(1606859828.451185) vcan0 1B0#000F0000000157
(1606859828.451194) vcan0 1D0#000000000000000A
(1606859828.452329) vcan0 166#D0320027
(1606859828.453717) vcan0 158#0000000000000028
(1606859828.453774) vcan0 161#000005500108002B
(1606859828.453792) vcan0 191#010010A141001A
(1606859828.454902) vcan0 133#00000000B6
(1606859828.454941) vcan0 136#0002000000000039
(1606859828.454952) vcan0 13A#0000000000000037
(1606859828.454962) vcan0 13F#000000050000003D
(1606859828.454971) vcan0 164#0000C01AA8000013
(1606859828.456086) vcan0 17C#0000000010000030
(1606859828.456131) vcan0 18E#00007A
(1606859828.456164) vcan0 294#040B0002CF5A000E
(1606859828.456183) vcan0 21E#03E83745220601
(1606859828.457336) vcan0 183#0000000B0000103D
(1606859828.457410) vcan0 143#6B6B00FF
(1606859828.458855) vcan0 244#00000001B7
(1606859828.459705) vcan0 095#800007F400000026
(1606859828.459818) vcan0 039#002A
(1606859828.462067) vcan0 166#D0320036
(1606859828.464321) vcan0 158#0000000000000037
(1606859828.464348) vcan0 161#000005500108003A
(1606859828.464358) vcan0 191#010010A1410029
(1606859828.464367) vcan0 133#0000000089
(1606859828.464376) vcan0 136#000200000000000C
(1606859828.465494) vcan0 13A#000000000000000A
(1606859828.465575) vcan0 13F#0000000500000000
(1606859828.465619) vcan0 164#0000C01AA8000022
(1606859828.465636) vcan0 17C#0000000010000003
(1606859828.465650) vcan0 18E#00004D
(1606859828.465666) vcan0 1CF#80050000000F
(1606859828.465679) vcan0 1DC#0200000C
(1606859828.466770) vcan0 320#000003
(1606859828.466798) vcan0 324#7465000000000E0B
(1606859828.466808) vcan0 37C#FD00FD00097F000B
(1606859828.466818) vcan0 183#0000000800001003
(1606859828.467924) vcan0 143#6B6B00C2
(1606859828.469240) vcan0 244#0000000164
(1606859828.470152) vcan0 095#800007F400000035
(1606859828.470196) vcan0 1A4#000000080000002F
(1606859828.471311) vcan0 1AA#7FFF000000006720
(1606859828.471350) vcan0 1B0#000F0000000166
(1606859828.471365) vcan0 1D0#000000000000000A
(1606859828.472465) vcan0 166#D0320009
(1606859828.473581) vcan0 039#0039
(1606859828.473620) vcan0 158#000000000000000A
(1606859828.473632) vcan0 161#000005500108000D
(1606859828.474719) vcan0 191#010010A1410038
(1606859828.474743) vcan0 133#0000000098
(1606859828.474752) vcan0 136#000200000000001B
(1606859828.474761) vcan0 13A#0000000000000019
(1606859828.474770) vcan0 13F#000000050000001F
(1606859828.475874) vcan0 164#0000C01AA8000031
(1606859828.475941) vcan0 17C#0000000010000012
(1606859828.475961) vcan0 18E#00005C
(1606859828.477056) vcan0 183#0000000D0000101D
(1606859828.478191) vcan0 143#6B6B00D1
(1606859828.480425) vcan0 095#800007F400000008
(1606859828.482665) vcan0 166#D0320018
(1606859828.483782) vcan0 158#0000000000000019
(1606859828.483813) vcan0 161#000005500108001C
(1606859828.483823) vcan0 191#010010A141000B
(1606859828.484663) vcan0 244#0000000143
(1606859828.484914) vcan0 164#0000C01AA9000003
(1606859828.484942) vcan0 133#00000000A7
(1606859828.484951) vcan0 136#000200000000002A
(1606859828.484960) vcan0 13A#0000000000000028
(1606859828.484969) vcan0 13F#000000050000002E
(1606859828.486081) vcan0 17C#0000000010000021
(1606859828.486115) vcan0 18E#00006B
(1606859828.486125) vcan0 1CF#80050000001E
(1606859828.486134) vcan0 1DC#0200001B
(1606859828.486143) vcan0 039#000C
(1606859828.487240) vcan0 183#0000000900001020
(1606859828.488354) vcan0 143#6B6B00E0
(1606859828.490577) vcan0 095#800007F400000017
(1606859828.490626) vcan0 1A4#000000080000003E
(1606859828.490641) vcan0 1AA#7FFF00000000683E
(1606859828.490651) vcan0 1B0#000F0000000175
(1606859828.491803) vcan0 1D0#000000000000000A
(1606859828.492984) vcan0 166#D0320027
(1606859828.494120) vcan0 158#0000000000000028
(1606859828.494167) vcan0 161#000005500108002B
(1606859828.494182) vcan0 191#010010A141001A
(1606859828.494197) vcan0 133#00000000B6
(1606859828.494212) vcan0 136#0002000000000039
(1606859828.495047) vcan0 244#00000001F9
(1606859828.495330) vcan0 13A#0000000000000037
(1606859828.495383) vcan0 13F#000000050000003D
(1606859828.495402) vcan0 164#0000C01AA8000013
(1606859828.495421) vcan0 17C#0000000010000030
(1606859828.495453) vcan0 18E#00007A
(1606859828.496598) vcan0 294#040B0002CF5A001D
(1606859828.496674) vcan0 21E#03E83745220610
(1606859828.496691) vcan0 309#0000000000000093
(1606859828.497853) vcan0 183#0000000E0000103A
(1606859828.497896) vcan0 143#6B6B00FF
(1606859828.500075) vcan0 095#800007F400000026
(1606859828.502269) vcan0 039#001B
(1606859828.502304) vcan0 166#D0320036
(1606859828.503398) vcan0 158#0000000000000037
(1606859828.504507) vcan0 161#000005500108003A
(1606859828.504533) vcan0 191#010010A1410029
(1606859828.504549) vcan0 133#0000000089
(1606859828.504565) vcan0 136#000200000000000C
(1606859828.504581) vcan0 13A#000000000000000A
(1606859828.505691) vcan0 13F#0000000500000000
(1606859828.505726) vcan0 164#0000C01AA8000022
(1606859828.505742) vcan0 17C#0000000010000003
(1606859828.505756) vcan0 18E#00004D
(1606859828.505770) vcan0 1CF#80050000002D
(1606859828.505799) vcan0 1DC#0200002A
(1606859828.506898) vcan0 183#0000000A00001001
(1606859828.508046) vcan0 143#6B6B00C2
(1606859828.510248) vcan0 095#800007F400000035
(1606859828.510287) vcan0 1A4#0000000800000001
(1606859828.510302) vcan0 1AA#7FFF000000006801
(1606859828.510477) vcan0 244#0000000167
(1606859828.511398) vcan0 1B0#000F0000000148
(1606859828.511444) vcan0 1D0#000000000000000A
(1606859828.512616) vcan0 166#D0320009
(1606859828.513753) vcan0 158#000000000000000A
(1606859828.513785) vcan0 161#000005500108000D
(1606859828.513796) vcan0 191#010010A1410038
(1606859828.514892) vcan0 133#0000000098
(1606859828.514925) vcan0 136#000200000000001B
(1606859828.514935) vcan0 13A#0000000000000019
(1606859828.514944) vcan0 13F#000000050000001F
(1606859828.514953) vcan0 164#0000C01AA8000031
(1606859828.516049) vcan0 17C#0000000010000012
(1606859828.516083) vcan0 18E#00005C
(1606859828.516094) vcan0 039#002A
(1606859828.517184) vcan0 183#0000000700001013
(1606859828.518311) vcan0 143#6B6B00D1
(1606859828.520637) vcan0 095#800007F400000008
(1606859828.523100) vcan0 166#D0320018
(1606859828.524231) vcan0 158#0000000000000019
(1606859828.524263) vcan0 161#000005500108001C
(1606859828.524274) vcan0 191#010010A141000B
(1606859828.524283) vcan0 164#0000C01AA8000004
(1606859828.524292) vcan0 133#00000000A7
(1606859828.525342) vcan0 136#000200000000002A
(1606859828.525372) vcan0 13A#0000000000000028
(1606859828.525382) vcan0 13F#000000050000002E
(1606859828.525391) vcan0 17C#0000000010000021
(1606859828.525400) vcan0 18E#00006B
(1606859828.525985) vcan0 244#000000015C
(1606859828.526505) vcan0 1CF#80050000003C
(1606859828.526537) vcan0 1DC#02000039
(1606859828.526548) vcan0 183#0000000D0000102C
(1606859828.527658) vcan0 143#6B6B00E0
(1606859828.529907) vcan0 095#800007F400000017
(1606859828.529978) vcan0 039#0039
(1606859828.531086) vcan0 1A4#0000000800000010
(1606859828.531182) vcan0 1AA#7FFF000000006810
(1606859828.531200) vcan0 1B0#000F0000000157
(1606859828.531210) vcan0 1D0#000000000000000A
(1606859828.532311) vcan0 166#D0320027
(1606859828.533438) vcan0 158#0000000000000028
(1606859828.533477) vcan0 161#000005500108002B
(1606859828.534578) vcan0 191#010010A141001A
(1606859828.534605) vcan0 133#00000000B6
(1606859828.534615) vcan0 136#0002000000000039
(1606859828.534624) vcan0 13A#0000000000000037
(1606859828.535730) vcan0 13F#000000050000003D
(1606859828.535773) vcan0 164#0000C01AA8000013
(1606859828.535789) vcan0 17C#0000000010000030
(1606859828.535800) vcan0 18E#00007A
(1606859828.535813) vcan0 294#040B0002CF5A002C
(1606859828.535828) vcan0 21E#03E8374522062F
(1606859828.536272) vcan0 244#000000010C
(1606859828.536934) vcan0 305#8017
(1606859828.538066) vcan0 183#000000090000103F
(1606859828.538100) vcan0 143#6B6B00FF
(1606859828.540313) vcan0 095#800007F400000026
(1606859828.542523) vcan0 166#D0320036
(1606859828.543638) vcan0 158#0000000000000037
(1606859828.543668) vcan0 161#000005500108003A
(1606859828.544771) vcan0 191#010010A1410029
(1606859828.544801) vcan0 039#000C
(1606859828.544812) vcan0 133#0000000089
(1606859828.544821) vcan0 136#000200000000000C
(1606859828.544830) vcan0 13A#000000000000000A
(1606859828.544839) vcan0 13F#0000000500000000
(1606859828.545942) vcan0 164#0000C01AA8000022
(1606859828.545971) vcan0 17C#0000000010000003
(1606859828.545982) vcan0 18E#00004D
(1606859828.545991) vcan0 1CF#80050000000F
(1606859828.546000) vcan0 1DC#0200000C
(1606859828.547095) vcan0 183#0000000600001005
(1606859828.548222) vcan0 143#6B6B00C2
(1606859828.548258) vcan0 333#0000000000001E
(1606859828.550445) vcan0 095#800007F400000035
(1606859828.550492) vcan0 1A4#000000080000002F
(1606859828.550512) vcan0 1AA#7FFF000000006720
(1606859828.550538) vcan0 1B0#000F0000000166
(1606859828.551636) vcan0 1D0#000000000000000A
(1606859828.551666) vcan0 244#000000014E
(1606859828.552815) vcan0 166#D0320009
(1606859828.553964) vcan0 158#000000000000000A
(1606859828.554039) vcan0 161#000005500108000D
(1606859828.554057) vcan0 191#010010A1410038
(1606859828.554087) vcan0 133#0000000098
(1606859828.555276) vcan0 136#000200000000001B
(1606859828.555347) vcan0 13A#0000000000000019
(1606859828.555360) vcan0 13F#000000050000001F
(1606859828.555372) vcan0 164#0000C01AA8000031
(1606859828.555390) vcan0 17C#0000000010000012
(1606859828.555404) vcan0 18E#00005C
(1606859828.557617) vcan0 183#0000000C0000101E
(1606859828.557664) vcan0 143#6B6B00D1
(1606859828.559860) vcan0 095#800007F400000008
(1606859828.562068) vcan0 166#D0320018
(1606859828.564271) vcan0 158#0000000000000019
(1606859828.564314) vcan0 161#000005500108001C
(1606859828.564329) vcan0 191#010090A1410003
(1606859828.564343) vcan0 039#001B
(1606859828.564357) vcan0 133#00000000A7
(1606859828.564374) vcan0 136#000200000000002A
(1606859828.565485) vcan0 13A#0000000000000028
(1606859828.565535) vcan0 13F#000000050000002E
(1606859828.565554) vcan0 164#0000C01AA8000004
(1606859828.565571) vcan0 17C#0000000010000021
(1606859828.565586) vcan0 18E#00006B
(1606859828.565602) vcan0 1CF#80050000001E
(1606859828.566703) vcan0 1DC#0200001B
(1606859828.566739) vcan0 320#000012
(1606859828.566755) vcan0 324#7465000000000E1A
(1606859828.566769) vcan0 37C#FD00FD00097F001A
(1606859828.566784) vcan0 183#0000000900001020
(1606859828.567101) vcan0 244#00000001E7
(1606859828.567928) vcan0 143#6B6B00E0
(1606859828.570153) vcan0 095#800007F400000017
(1606859828.570197) vcan0 1A4#000000080000003E
(1606859828.571301) vcan0 1AA#7FFF00000000683E
(1606859828.571332) vcan0 1B0#000F0000000175
(1606859828.571342) vcan0 1D0#000000000000000A
(1606859828.572421) vcan0 166#D0320027
(1606859828.573511) vcan0 158#0000000000000028
(1606859828.573536) vcan0 161#000005500108002B
(1606859828.574706) vcan0 191#010090A1410012
(1606859828.574746) vcan0 133#00000000B6
(1606859828.574757) vcan0 136#0002000000000039
(1606859828.574767) vcan0 13A#0000000000000037
(1606859828.574779) vcan0 13F#000000050000003D
(1606859828.575884) vcan0 164#0000C01AA8000013
(1606859828.575918) vcan0 17C#0000000010000030
(1606859828.575929) vcan0 18E#00007A
(1606859828.575938) vcan0 294#040B0002CF5A003B
(1606859828.575947) vcan0 21E#03E8374522063E
(1606859828.577077) vcan0 039#002A
(1606859828.577120) vcan0 183#0000000E0000103A
(1606859828.578218) vcan0 143#6B6B00FF
(1606859828.580417) vcan0 095#800007F400000026
(1606859828.582520) vcan0 244#0000000183
(1606859828.582639) vcan0 166#D0320036
(1606859828.583749) vcan0 158#0000000000000037
(1606859828.583781) vcan0 161#000005500108003A
(1606859828.583791) vcan0 191#010090A1410021
(1606859828.584896) vcan0 133#0000000089
(1606859828.584928) vcan0 136#000200000000000C
(1606859828.584938) vcan0 13A#000000000000000A
(1606859828.584947) vcan0 13F#0000000500000000
(1606859828.584956) vcan0 164#0000C01AA8000022
(1606859828.586052) vcan0 17C#0000000010000003
(1606859828.586096) vcan0 18E#00004D
(1606859828.586111) vcan0 1CF#80050000002D
(1606859828.586124) vcan0 1DC#0200002A
(1606859828.587238) vcan0 183#0000000A00001001
(1606859828.587292) vcan0 143#6B6B00C2
(1606859828.590561) vcan0 095#800007F400000035
(1606859828.590606) vcan0 1A4#0000000800000001
(1606859828.590625) vcan0 1AA#7FFF000000006801
(1606859828.590639) vcan0 1B0#000F0000000148
(1606859828.591731) vcan0 1D0#000000000000000A
(1606859828.591772) vcan0 039#0039
(1606859828.592972) vcan0 166#D0320009
(1606859828.594194) vcan0 158#000000000000000A
(1606859828.594265) vcan0 161#000005500108000D
(1606859828.594279) vcan0 191#010090A1410030
(1606859828.594293) vcan0 133#0000000098
(1606859828.594304) vcan0 136#000200000000001B
(1606859828.595416) vcan0 13A#0000000000000019
(1606859828.595451) vcan0 13F#000000050000001F
(1606859828.595462) vcan0 164#0000C01AA8000031
(1606859828.595472) vcan0 17C#0000000010000012
(1606859828.595480) vcan0 18E#00005C
(1606859828.596618) vcan0 309#00000000000000A2
(1606859828.597750) vcan0 183#0000000F0000101B
(1606859828.597797) vcan0 143#6B6B00D1
(1606859828.597983) vcan0 244#00000001EF
(1606859828.599968) vcan0 095#800007F400000008
(1606859828.602167) vcan0 166#D0320018
(1606859828.603297) vcan0 158#0000000000000019
(1606859828.604418) vcan0 161#000005500108001C
(1606859828.604451) vcan0 191#010090A1410003
(1606859828.604467) vcan0 164#0000C01AA8000004
(1606859828.604481) vcan0 133#00000000A7
(1606859828.604498) vcan0 136#000200000000002A
(1606859828.605607) vcan0 13A#0000000000000028
(1606859828.605644) vcan0 13F#000000050000002E
(1606859828.605659) vcan0 17C#0000000010000021
(1606859828.605672) vcan0 18E#00006B
(1606859828.605684) vcan0 039#000C
(1606859828.605700) vcan0 1CF#80050000003C
(1606859828.606799) vcan0 1DC#02000039
(1606859828.606833) vcan0 183#0000000B0000102E
(1606859828.607987) vcan0 143#6B6B00E0
(1606859828.608259) vcan0 244#00000001B8
(1606859828.610190) vcan0 095#800007F400000017
(1606859828.610227) vcan0 1A4#0000000800000010
(1606859828.610242) vcan0 1AA#7FFF000000006810
(1606859828.611353) vcan0 1B0#000F0000000157
(1606859828.611387) vcan0 1D0#000000000000000A
(1606859828.612530) vcan0 166#D0320027
(1606859828.613639) vcan0 158#0000000000000028
(1606859828.613673) vcan0 161#000005500108002B
(1606859828.613688) vcan0 191#010090A1410012
(1606859828.614831) vcan0 133#00000000B6
(1606859828.614877) vcan0 136#0002000000000039
(1606859828.614908) vcan0 13A#0000000000000037
(1606859828.614923) vcan0 13F#000000050000003D
(1606859828.614939) vcan0 164#0000C01AA8000013
(1606859828.616080) vcan0 17C#0000000010000030
(1606859828.616121) vcan0 18E#00007A
(1606859828.616133) vcan0 294#040B0002CF5A000E
(1606859828.616143) vcan0 21E#03E83745220601
(1606859828.617280) vcan0 183#0000000800001030
(1606859828.617329) vcan0 143#6B6B00FF
(1606859828.618535) vcan0 188#00000000
(1606859828.619538) vcan0 039#001B
(1606859828.620723) vcan0 095#800007F400000026
(1606859828.623014) vcan0 166#D0320036
(1606859828.623698) vcan0 244#000000018A
(1606859828.624139) vcan0 158#0000000000000037
(1606859828.624178) vcan0 161#000005500108003A
(1606859828.624189) vcan0 191#010090A1410021
(1606859828.624198) vcan0 133#0000000089
(1606859828.624207) vcan0 136#000200000000000C
(1606859828.625295) vcan0 13A#000000000000000A
(1606859828.625324) vcan0 13F#0000000500000000
(1606859828.625336) vcan0 164#0000C01AA8000022
(1606859828.625349) vcan0 17C#0000000010000003
(1606859828.625362) vcan0 18E#00004D
(1606859828.626473) vcan0 1CF#80050000000F
(1606859828.626505) vcan0 1DC#0200000C
(1606859828.626517) vcan0 183#0000000600001005
(1606859828.627618) vcan0 143#6B6B00C2
(1606859828.629984) vcan0 095#800007F400000035
(1606859828.630023) vcan0 1A4#000000080000002F
(1606859828.631128) vcan0 1AA#7FFF000000006720
(1606859828.631165) vcan0 1B0#000F0000000166
(1606859828.631180) vcan0 1D0#000000000000000A
(1606859828.632279) vcan0 166#D0320009
(1606859828.633393) vcan0 158#000000000000000A
(1606859828.634506) vcan0 161#000005500108000D
(1606859828.634537) vcan0 191#010090A1410030
(1606859828.634552) vcan0 133#0000000098
(1606859828.634568) vcan0 136#000200000000001B
(1606859828.634583) vcan0 039#002A
(1606859828.634598) vcan0 13A#0000000000000019
(1606859828.635701) vcan0 13F#000000050000001F
(1606859828.635744) vcan0 164#0000C01AA8000031
(1606859828.635761) vcan0 17C#0000000010000012
(1606859828.635773) vcan0 18E#00005C
(1606859828.637954) vcan0 183#0000000400001016
(1606859828.637984) vcan0 143#6B6B00D1
(1606859828.639086) vcan0 244#0000000127
(1606859828.640206) vcan0 095#800007F400000008
(1606859828.641319) vcan0 305#8026
(1606859828.642426) vcan0 166#D0320018
(1606859828.643521) vcan0 158#0000000000000019
(1606859828.643542) vcan0 161#000005500108001C
(1606859828.644631) vcan0 191#010090A1410003
(1606859828.644662) vcan0 133#00000000A7
(1606859828.644672) vcan0 136#000200000000002A
(1606859828.644681) vcan0 13A#0000000000000028
(1606859828.644690) vcan0 13F#000000050000002E
(1606859828.645784) vcan0 164#0000C01AA8000004
(1606859828.645814) vcan0 17C#0000000010000021
(1606859828.645825) vcan0 18E#00006B
(1606859828.645834) vcan0 1CF#80050000001E
(1606859828.645842) vcan0 1DC#0200001B
(1606859828.646937) vcan0 183#0000000300001026
(1606859828.648102) vcan0 143#6B6B00E0
(1606859828.648140) vcan0 039#0039
(1606859828.648151) vcan0 333#0000000000002D
(1606859828.650331) vcan0 095#800007F400000017
(1606859828.650384) vcan0 1A4#000000080000003E
(1606859828.650403) vcan0 1AA#7FFF00000000683E
(1606859828.651512) vcan0 1B0#000F0000000175
(1606859828.651562) vcan0 1D0#000000000000000A
(1606859828.652681) vcan0 166#D0320027
(1606859828.653810) vcan0 158#0000000000000028
(1606859828.653851) vcan0 161#000005500108002B
(1606859828.653867) vcan0 191#010090A1410012
(1606859828.654536) vcan0 244#000000013F
(1606859828.654977) vcan0 133#00000000B6
(1606859828.655029) vcan0 136#0002000000000039
(1606859828.655051) vcan0 13A#0000000000000037
(1606859828.655066) vcan0 13F#000000050000003D
(1606859828.655082) vcan0 164#0000C01AA8000013
(1606859828.656232) vcan0 17C#0000000010000030
(1606859828.656275) vcan0 18E#00007A
(1606859828.656286) vcan0 294#040B0002CF5A001D
(1606859828.656296) vcan0 21E#03E83745220610
(1606859828.657397) vcan0 183#0000000A0000103E
(1606859828.657444) vcan0 143#6B6B00FF
(1606859828.659897) vcan0 095#800007F400000026
(1606859828.662272) vcan0 166#D0320036
(1606859828.663412) vcan0 158#0000000000000037
(1606859828.664587) vcan0 161#000005500108003A
(1606859828.664623) vcan0 191#010090A1410021
(1606859828.664635) vcan0 133#0000000089
(1606859828.664646) vcan0 136#000200000000000C
(1606859828.664655) vcan0 13A#000000000000000A
(1606859828.664665) vcan0 13F#0000000500000000
(1606859828.665813) vcan0 164#0000C01AA8000022
(1606859828.665868) vcan0 17C#0000000010000003
(1606859828.665885) vcan0 18E#00004D
(1606859828.665902) vcan0 1CF#80050000002D
(1606859828.665918) vcan0 1DC#0200002A
(1606859828.665935) vcan0 320#000021
(1606859828.667033) vcan0 324#7465000000000E29
(1606859828.667080) vcan0 37C#FD00FD00097F0029
(1606859828.667098) vcan0 40C#014A484D46413325
(1606859828.667114) vcan0 183#0000000700001004
(1606859828.667145) vcan0 454#23EF27
(1606859828.668264) vcan0 143#6B6B00C2
(1606859828.670125) vcan0 244#00000001A6
(1606859828.670486) vcan0 095#800007F400000035
(1606859828.670527) vcan0 039#000C
(1606859828.670546) vcan0 1A4#0000000800000001
(1606859828.670562) vcan0 1AA#7FFF000000006801
(1606859828.670578) vcan0 1B0#000F0000000148
(1606859828.671697) vcan0 1D0#000000000000000A
(1606859828.672839) vcan0 166#D0320009
(1606859828.673963) vcan0 158#000000000000000A
(1606859828.673995) vcan0 161#000005500108000D
(1606859828.674013) vcan0 191#010090A1410030
(1606859828.674028) vcan0 133#0000000098
(1606859828.675124) vcan0 136#000200000000001B
(1606859828.675161) vcan0 13A#0000000000000019
(1606859828.675177) vcan0 13F#000000050000001F
(1606859828.675193) vcan0 164#0000C01AA8000031
(1606859828.675207) vcan0 17C#0000000010000012
(1606859828.676334) vcan0 18E#00005C
(1606859828.677487) vcan0 183#0000000D0000101D
(1606859828.677536) vcan0 143#6B6B00D1
(1606859828.680787) vcan0 095#800007F400000008
(1606859828.683027) vcan0 166#D0320018
(1606859828.684189) vcan0 158#0000000000000019
(1606859828.684225) vcan0 161#000005500108001C
(1606859828.684235) vcan0 191#010090A1410003
(1606859828.684244) vcan0 133#00000000A7
(1606859828.684253) vcan0 136#000200000000002A
(1606859828.685356) vcan0 13A#0000000000000028
(1606859828.685389) vcan0 13F#000000050000002E
(1606859828.685403) vcan0 164#0000C01AA8000004
(1606859828.685417) vcan0 17C#0000000010000021
(1606859828.685431) vcan0 18E#00006B
(1606859828.685561) vcan0 244#0000000173
(1606859828.686541) vcan0 1CF#80050000003C
(1606859828.686607) vcan0 1DC#02000039
(1606859828.686623) vcan0 183#0000001100001027
(1606859828.687729) vcan0 143#6B6B00E0
(1606859828.688859) vcan0 039#001B
(1606859828.689987) vcan0 095#800007F400000017
(1606859828.690048) vcan0 1A4#0000000800000010
(1606859828.691163) vcan0 1AA#7FFF000000006810
(1606859828.691207) vcan0 1B0#000F0000000157
(1606859828.691223) vcan0 1D0#000000000000000A
(1606859828.692327) vcan0 166#D0320027
(1606859828.693447) vcan0 158#0000000000000028
(1606859828.693476) vcan0 161#000005500108002B
(1606859828.694615) vcan0 191#010090A1410012
(1606859828.694657) vcan0 133#00000000B6
(1606859828.694668) vcan0 136#0002000000000039
(1606859828.694677) vcan0 13A#0000000000000037
(1606859828.694686) vcan0 13F#000000050000003D
(1606859828.695801) vcan0 164#0000C01AA8000013
(1606859828.695911) vcan0 17C#0000000010000030
(1606859828.695933) vcan0 18E#00007A
(1606859828.695956) vcan0 294#040B0002CF5A002C
(1606859828.695966) vcan0 21E#03E8374522062F
(1606859828.697125) vcan0 309#00000000000000B1
(1606859828.697204) vcan0 428#01040000521C3E
(1606859828.697215) vcan0 405#0000040000000038
(1606859828.697223) vcan0 183#0000000C0000103C
(1606859828.698371) vcan0 143#6B6B00FF
(1606859828.700572) vcan0 095#800007F400000026
(1606859828.701089) vcan0 244#00000001EB
(1606859828.702833) vcan0 166#D0320036
(1606859828.702866) vcan0 039#002A
(1606859828.703972) vcan0 158#0000000000000037
(1606859828.704013) vcan0 161#000005500108003A
(1606859828.704028) vcan0 191#010090A1410021
(1606859828.704041) vcan0 133#0000000089
(1606859828.705180) vcan0 136#000200000000000C
(1606859828.705214) vcan0 13A#000000000000000A
(1606859828.705229) vcan0 13F#0000000500000000
(1606859828.705243) vcan0 164#0000C01AA8000022
(1606859828.705256) vcan0 17C#0000000010000003
(1606859828.705270) vcan0 18E#00004D
(1606859828.706365) vcan0 1CF#80050000000F
(1606859828.706413) vcan0 1DC#0200000C
(1606859828.707523) vcan0 183#000000100000100A
(1606859828.707559) vcan0 143#6B6B00C2
(1606859828.709744) vcan0 095#800007F400000035
(1606859828.710890) vcan0 1A4#000000080000002F
(1606859828.710925) vcan0 1AA#7FFF000000006720
(1606859828.710940) vcan0 1B0#000F0000000166
(1606859828.710954) vcan0 1D0#000000000000000A
(1606859828.712061) vcan0 166#D0320009
(1606859828.714301) vcan0 158#000000000000000A
(1606859828.714333) vcan0 161#000005500108000D
(1606859828.714343) vcan0 191#010090A1410030
(1606859828.714353) vcan0 133#0000000098
(1606859828.714362) vcan0 136#000200000000001B
(1606859828.715478) vcan0 13A#0000000000000019
(1606859828.715509) vcan0 13F#000000050000001F
(1606859828.715520) vcan0 164#0000C01AA9000030
(1606859828.715529) vcan0 17C#0000000010000012
(1606859828.715537) vcan0 18E#00005C
(1606859828.716549) vcan0 244#0000000156
(1606859828.717718) vcan0 039#0039
(1606859828.717761) vcan0 183#0000000C0000101E
(1606859828.717777) vcan0 143#6B6B00D1
(1606859828.719992) vcan0 095#800007F400000008
(1606859828.722216) vcan0 166#D0320018
(1606859828.723377) vcan0 158#0000000000000019
(1606859828.724596) vcan0 161#000005500108001C
(1606859828.724659) vcan0 191#010090A1410003
(1606859828.724683) vcan0 133#00000000A7
(1606859828.724706) vcan0 136#000200000000002A
(1606859828.724718) vcan0 13A#0000000000000028
(1606859828.724727) vcan0 13F#000000050000002E
(1606859828.725812) vcan0 164#0000C01AA8000004
(1606859828.725832) vcan0 17C#0000000010000021
(1606859828.725841) vcan0 18E#00006B
(1606859828.725849) vcan0 1CF#80050000001E
(1606859828.725858) vcan0 1DC#0200001B
(1606859828.726945) vcan0 183#0000001000001028
(1606859828.728072) vcan0 143#6B6B00E0
(1606859828.730297) vcan0 095#800007F400000017
(1606859828.730347) vcan0 1A4#000000080000003E
(1606859828.730363) vcan0 1AA#7FFF00000000683E
(1606859828.731553) vcan0 1B0#000F0000000175
(1606859828.731598) vcan0 1D0#000000000000000A
(1606859828.732006) vcan0 244#0000000159
(1606859828.732721) vcan0 039#000C
(1606859828.732762) vcan0 166#D0320027
(1606859828.733856) vcan0 158#0000000000000028
(1606859828.733898) vcan0 161#000005500108002B
(1606859828.733918) vcan0 191#010090A1410012
(1606859828.733933) vcan0 133#00000000B6
(1606859828.735041) vcan0 136#0002000000000039
(1606859828.735082) vcan0 13A#0000000000000037
(1606859828.735098) vcan0 13F#000000050000003D
(1606859828.735111) vcan0 164#0000C01AA8000013
(1606859828.735124) vcan0 17C#0000000010000030
(1606859828.736240) vcan0 18E#00007A
(1606859828.736281) vcan0 294#040B0002CF5A003B
(1606859828.736298) vcan0 21E#03E8374522063E
(1606859828.737388) vcan0 183#0000001300001034
(1606859828.737420) vcan0 143#6B6B00FF
(1606859828.739606) vcan0 095#800007F800000022
(1606859828.742296) vcan0 244#00000001B7
(1606859828.742906) vcan0 166#D0320036
(1606859828.744044) vcan0 158#0000000000000037
(1606859828.744079) vcan0 161#000005500108003A
(1606859828.744094) vcan0 191#010090A1410021
(1606859828.744108) vcan0 133#0000000089
(1606859828.745213) vcan0 136#000200000000000C
(1606859828.745247) vcan0 13A#000000000000000A
(1606859828.745262) vcan0 13F#0000000500000000
(1606859828.745276) vcan0 164#0000C01AA8000022
(1606859828.745289) vcan0 17C#0000000010000003
(1606859828.745305) vcan0 18E#00004D
(1606859828.746395) vcan0 1CF#80050000002D
(1606859828.746423) vcan0 1DC#0200002A
(1606859828.746437) vcan0 305#8035
(1606859828.747526) vcan0 183#0000000E0000100D
(1606859828.747565) vcan0 143#6B6B00C2
(1606859828.748672) vcan0 333#0000000000003C
(1606859828.749792) vcan0 095#800007F800000031
(1606859828.750931) vcan0 1A4#0000000800000001
(1606859828.750980) vcan0 1AA#7FFF000000006801
(1606859828.751000) vcan0 1B0#000F0000000148
(1606859828.751014) vcan0 1D0#000000000000000A
(1606859828.752120) vcan0 039#001B
(1606859828.752169) vcan0 166#D0320009
(1606859828.753324) vcan0 158#000000000000000A
(1606859828.754527) vcan0 161#000005500108000D
(1606859828.754653) vcan0 191#010090A1410030
(1606859828.754671) vcan0 133#0000000098
(1606859828.754685) vcan0 136#000200000000001B
(1606859828.754698) vcan0 13A#0000000000000019
(1606859828.754711) vcan0 13F#000000050000001F
(1606859828.755831) vcan0 164#0000C01AA8000031
(1606859828.755865) vcan0 17C#0000000010000012
(1606859828.755876) vcan0 18E#00005C
(1606859828.756985) vcan0 183#0000000A00001010
(1606859828.757788) vcan0 244#0000000116
(1606859828.758110) vcan0 143#6B6B00D1
(1606859828.760305) vcan0 095#800007F800000004
(1606859828.762555) vcan0 166#D0320018
(1606859828.763674) vcan0 158#0000000000000019
(1606859828.763725) vcan0 161#000005500108001C
(1606859828.763740) vcan0 191#010090A1410003
(1606859828.764841) vcan0 133#00000000A7
(1606859828.764875) vcan0 136#000200000000002A
(1606859828.764891) vcan0 13A#0000000000000028
(1606859828.764905) vcan0 13F#000000050000002E
(1606859828.764918) vcan0 164#0000C01AA8000004
(1606859828.766020) vcan0 039#002A
(1606859828.766051) vcan0 17C#0000000010000021
(1606859828.766062) vcan0 18E#00006B
(1606859828.766071) vcan0 1CF#80050000003C
(1606859828.766079) vcan0 1DC#02000039
(1606859828.766088) vcan0 320#000030
(1606859828.767203) vcan0 324#7465000000000E38
(1606859828.767234) vcan0 37C#FD00FD00097F0038
(1606859828.767245) vcan0 183#0000000700001022
(1606859828.768083) vcan0 244#0000000190
(1606859828.768339) vcan0 143#6B6B00E0
(1606859828.770533) vcan0 095#800007F800000013
(1606859828.770567) vcan0 1A4#0000000800000010
(1606859828.770579) vcan0 1AA#7FFF000000006810
(1606859828.770589) vcan0 1B0#000F0000000157
(1606859828.771693) vcan0 1D0#000000000000000A
(1606859828.772798) vcan0 166#D0320027
(1606859828.773895) vcan0 158#0000000000000028
(1606859828.773929) vcan0 161#000005500108002B
(1606859828.773939) vcan0 191#010090A1410012
(1606859828.773948) vcan0 133#00000000B6
(1606859828.775054) vcan0 136#0002000000000039
(1606859828.775087) vcan0 13A#0000000000000037
(1606859828.775098) vcan0 13F#000000050000003D
(1606859828.775108) vcan0 164#0000C01AA8000013
(1606859828.775117) vcan0 17C#0000000010000030
(1606859828.776271) vcan0 18E#00007A
(1606859828.776308) vcan0 294#040B0002CF5A000E
(1606859828.776319) vcan0 21E#03E83745220601
(1606859828.777436) vcan0 183#0000000500001033
(1606859828.777467) vcan0 143#6B6B00FF
(1606859828.779647) vcan0 039#0039
(1606859828.779689) vcan0 095#800007F800000022
(1606859828.782982) vcan0 166#D0320036
(1606859828.783551) vcan0 244#00000001E8
(1606859828.784125) vcan0 158#0000000000000037
(1606859828.784158) vcan0 161#000005500108003A
(1606859828.784169) vcan0 191#010090A1410021
(1606859828.784178) vcan0 164#0000C01AA8000022
(1606859828.784186) vcan0 133#0000000089
(1606859828.785352) vcan0 136#000200000000000C
(1606859828.785403) vcan0 13A#000000000000000A
(1606859828.785420) vcan0 13F#0000000500000000
(1606859828.785434) vcan0 17C#0000000010000003
(1606859828.785448) vcan0 18E#00004D
(1606859828.785462) vcan0 1CF#80050000000F
(1606859828.786557) vcan0 1DC#0200000C
(1606859828.786614) vcan0 183#0000000B00001000
(1606859828.787713) vcan0 143#6B6B00C2
(1606859828.789956) vcan0 095#800007F800000031
(1606859828.790006) vcan0 1A4#000000080000002F
(1606859828.791111) vcan0 1AA#7FFF000000006720
(1606859828.791146) vcan0 1B0#000F0000000166
(1606859828.791156) vcan0 1D0#000000000000000A
(1606859828.792262) vcan0 166#D0320009
(1606859828.793380) vcan0 158#000000000000000A
(1606859828.794501) vcan0 161#000005500108000D
(1606859828.794541) vcan0 191#010090A1410030
(1606859828.794551) vcan0 039#000C
(1606859828.794560) vcan0 133#0000000098
(1606859828.794570) vcan0 136#000200000000001B
(1606859828.794579) vcan0 13A#0000000000000019
(1606859828.795698) vcan0 13F#000000050000001F
(1606859828.795781) vcan0 164#0000C01AA8000031
(1606859828.795809) vcan0 17C#0000000010000012
(1606859828.795827) vcan0 18E#00005C
(1606859828.795842) vcan0 309#0000000000000084
(1606859828.798043) vcan0 183#0000000800001012
(1606859828.798093) vcan0 143#6B6B00D1
(1606859828.798982) vcan0 244#00000001D1
(1606859828.800271) vcan0 095#800007F800000004
(1606859828.802475) vcan0 166#D0320018
(1606859828.803592) vcan0 158#0000000000000019
(1606859828.803623) vcan0 161#000005500108001C
(1606859828.804709) vcan0 191#010090A1410003
(1606859828.804730) vcan0 133#00000000A7
(1606859828.804739) vcan0 136#000200000000002A
(1606859828.804748) vcan0 13A#0000000000000028
(1606859828.804757) vcan0 13F#000000050000002E
(1606859828.805856) vcan0 164#0000C01AA8000004
(1606859828.805875) vcan0 17C#0000000010000021
(1606859828.805884) vcan0 18E#00006B
(1606859828.805893) vcan0 1CF#80050000001E
(1606859828.805902) vcan0 1DC#0200001B
(1606859828.806976) vcan0 183#0000000D0000102C
(1606859828.808090) vcan0 143#6B6B00E0
(1606859828.808133) vcan0 039#001B
(1606859828.809258) vcan0 244#00000001E0
(1606859828.810314) vcan0 095#800007F800000013
(1606859828.810344) vcan0 1A4#000000080000003E
(1606859828.810355) vcan0 1AA#7FFF00000000683E
(1606859828.811455) vcan0 1B0#000F0000000175
(1606859828.811486) vcan0 1D0#000000000000000A
(1606859828.812593) vcan0 166#D0320027
(1606859828.813706) vcan0 158#0000000000000028
(1606859828.813735) vcan0 161#000005500108002B
(1606859828.813745) vcan0 191#010090A1410012
(1606859828.814851) vcan0 133#00000000B6
(1606859828.814891) vcan0 136#0002000000000039
(1606859828.814901) vcan0 13A#0000000000000037
(1606859828.814911) vcan0 13F#000000050000003D
(1606859828.814920) vcan0 164#0000C01AA8000013
(1606859828.816022) vcan0 17C#0000000010000030
(1606859828.816055) vcan0 18E#00007A
(1606859828.816067) vcan0 294#040B0002CF5A001D
(1606859828.816077) vcan0 21E#03E83745220610
(1606859828.817188) vcan0 183#000000090000103F
(1606859828.818321) vcan0 143#6B6B00FF
(1606859828.820525) vcan0 095#800007F800000022
(1606859828.822721) vcan0 166#D0320036
(1606859828.823878) vcan0 039#002A
(1606859828.823959) vcan0 158#0000000000000037
(1606859828.823969) vcan0 161#000005500108003A
(1606859828.823978) vcan0 191#010090A1410021
(1606859828.823988) vcan0 164#0000C01AA8000022
(1606859828.824877) vcan0 244#00000001D5
(1606859828.825135) vcan0 133#0000000089
(1606859828.825202) vcan0 136#000200000000000C
(1606859828.825213) vcan0 13A#000000000000000A
(1606859828.825223) vcan0 13F#0000000500000000
(1606859828.825234) vcan0 17C#0000000010000003
(1606859828.825243) vcan0 18E#00004D
(1606859828.826356) vcan0 1CF#80050000002D
(1606859828.826390) vcan0 1DC#0200002A
(1606859828.827490) vcan0 183#0000000600001005
(1606859828.827519) vcan0 143#6B6B00C2
(1606859828.829710) vcan0 095#800007F800000031
(1606859828.830824) vcan0 1A4#0000000800000001
(1606859828.830855) vcan0 1AA#7FFF000000006801
(1606859828.830866) vcan0 1B0#000F0000000148
(1606859828.830875) vcan0 1D0#000000000000000A
(1606859828.833055) vcan0 166#D0320009
(1606859828.834227) vcan0 158#000000000000000A
(1606859828.834258) vcan0 161#000005500108000D
(1606859828.834269) vcan0 191#010090A1410030
(1606859828.834278) vcan0 133#0000000098
(1606859828.834287) vcan0 136#000200000000001B
(1606859828.835234) vcan0 244#0000000131
(1606859828.835390) vcan0 13A#0000000000000019
(1606859828.835417) vcan0 13F#000000050000001F
(1606859828.835427) vcan0 164#0000C01AA8000031
(1606859828.835436) vcan0 17C#0000000010000012
(1606859828.835445) vcan0 18E#00005C
(1606859828.837639) vcan0 183#0000000C0000101E
(1606859828.837671) vcan0 143#6B6B00D1
(1606859828.838772) vcan0 039#0039
(1606859828.839895) vcan0 095#800007F800000004
(1606859828.842127) vcan0 166#D0320018
(1606859828.843293) vcan0 158#0000000000000019
(1606859828.844432) vcan0 161#000005500108001C
(1606859828.844463) vcan0 191#010090A1410003
(1606859828.844473) vcan0 133#00000000A7
(1606859828.844482) vcan0 136#000200000000002A
(1606859828.844491) vcan0 13A#0000000000000028
(1606859828.845591) vcan0 13F#000000050000002E
(1606859828.845622) vcan0 164#0000C01AA8000004
(1606859828.845632) vcan0 17C#0000000010000021
(1606859828.845847) vcan0 18E#00006B
(1606859828.845870) vcan0 1CF#80050000003C
(1606859828.845880) vcan0 1DC#02000039
(1606859828.846980) vcan0 183#0000000900001020
(1606859828.848152) vcan0 143#6B6B00E0
(1606859828.848188) vcan0 333#0000000000000F
(1606859828.850367) vcan0 095#800007F800000013
(1606859828.850398) vcan0 1A4#0000000800000010
(1606859828.850409) vcan0 1AA#7FFF000000006711
(1606859828.850419) vcan0 1B0#000F0000000157
(1606859828.850636) vcan0 244#00000001D8
(1606859828.851510) vcan0 1D0#000000000000000A
(1606859828.851544) vcan0 305#8008
(1606859828.852690) vcan0 166#D0320027
(1606859828.853926) vcan0 158#0000000000000028
(1606859828.854016) vcan0 161#000005500108002B
(1606859828.854040) vcan0 191#010090A1410012
(1606859828.854081) vcan0 133#00000000B6
(1606859828.855231) vcan0 136#0002000000000039
(1606859828.855285) vcan0 13A#0000000000000037
(1606859828.855296) vcan0 13F#000000050000003D
(1606859828.855308) vcan0 164#0000C01AA8000013
(1606859828.855319) vcan0 17C#0000000010000030
(1606859828.855332) vcan0 18E#00007A
(1606859828.856462) vcan0 294#040B0002CF5A002C
(1606859828.856502) vcan0 21E#03E8374522062F
(1606859828.857600) vcan0 183#0000000E0000103A
(1606859828.857630) vcan0 143#6B6B00FF
(1606859828.858734) vcan0 039#000C
(1606859828.859860) vcan0 095#800007F800000022
(1606859828.862109) vcan0 166#D0320036
(1606859828.864326) vcan0 158#0000000000000037
(1606859828.864369) vcan0 161#000005500108003A
(1606859828.864380) vcan0 191#010010A1410029
(1606859828.864390) vcan0 133#0000000089
(1606859828.864409) vcan0 136#000200000000000C
(1606859828.864430) vcan0 13A#000000000000000A
(1606859828.865553) vcan0 13F#0000000500000000
(1606859828.865621) vcan0 164#0000C01AA8000022
(1606859828.865643) vcan0 17C#0000000010000003
(1606859828.865700) vcan0 18E#00004D
(1606859828.865719) vcan0 1CF#80050000000F
(1606859828.865736) vcan0 1DC#0200000C
(1606859828.866168) vcan0 244#0000000169
(1606859828.866897) vcan0 320#000003
(1606859828.866945) vcan0 324#7465000000000E0B
(1606859828.866962) vcan0 37C#FD00FD00097F000B
(1606859828.866977) vcan0 183#0000001200001008
(1606859828.868084) vcan0 143#6B6B00C2
(1606859828.870291) vcan0 095#800007F800000031
(1606859828.870327) vcan0 1A4#000000080000002F
(1606859828.870340) vcan0 039#001B
(1606859828.870351) vcan0 1AA#7FFF000000006720
(1606859828.871456) vcan0 1B0#000F0000000166
(1606859828.871509) vcan0 1D0#000000000000000A
(1606859828.872628) vcan0 166#D0320009
(1606859828.873755) vcan0 158#000000000000000A
(1606859828.873784) vcan0 161#000005500108000D
(1606859828.873796) vcan0 191#010010A1410038
(1606859828.874889) vcan0 133#0000000098
(1606859828.874919) vcan0 136#000200000000001B
(1606859828.874934) vcan0 13A#0000000000000019
(1606859828.874948) vcan0 13F#000000050000001F
(1606859828.874963) vcan0 164#0000C01AA8000031
(1606859828.876078) vcan0 17C#0000000010000012
(1606859828.876121) vcan0 18E#00005C
(1606859828.877220) vcan0 183#0000000D0000101D
(1606859828.877252) vcan0 143#6B6B00D1
(1606859828.880522) vcan0 095#800007F800000004
(1606859828.881661) vcan0 244#000000017C
(1606859828.882757) vcan0 166#D0320018
(1606859828.883900) vcan0 158#0000000000000019
(1606859828.883938) vcan0 161#000005500108001C
(1606859828.883955) vcan0 191#010010A141000B
(1606859828.883968) vcan0 164#0000C01AA8000004
(1606859828.885128) vcan0 133#00000000A7
(1606859828.885183) vcan0 136#000200000000002A
(1606859828.885201) vcan0 13A#0000000000000028
(1606859828.885216) vcan0 13F#000000050000002E
(1606859828.885230) vcan0 039#002A
(1606859828.885240) vcan0 17C#0000000010000021
(1606859828.886359) vcan0 18E#00006B
(1606859828.886391) vcan0 1CF#80050000001E
(1606859828.886401) vcan0 1DC#0200001B
(1606859828.887501) vcan0 183#0000000900001020
(1606859828.887536) vcan0 143#6B6B00E0
(1606859828.889777) vcan0 095#800007F400000017
(1606859828.890976) vcan0 1A4#000000080000003E
(1606859828.891029) vcan0 1AA#7FFF00000000683E
(1606859828.891047) vcan0 1B0#000F0000000175
(1606859828.891060) vcan0 1D0#000000000000000A
(1606859828.892161) vcan0 166#D0320027
(1606859828.893304) vcan0 158#0000000000000028
(1606859828.894429) vcan0 161#000005500108002B
(1606859828.894459) vcan0 191#010010A141001A
(1606859828.894468) vcan0 133#00000000B6
(1606859828.894478) vcan0 136#0002000000000039
(1606859828.894487) vcan0 13A#0000000000000037
(1606859828.895591) vcan0 13F#000000050000003D
(1606859828.895629) vcan0 164#0000C01AA8000013
(1606859828.895640) vcan0 17C#0000000010000030
(1606859828.895650) vcan0 18E#00007A
(1606859828.895660) vcan0 294#040B0002CF5A003B
(1606859828.896757) vcan0 21E#03E8374522063E
(1606859828.896790) vcan0 309#0000000000000093
(1606859828.897081) vcan0 244#00000001AC
(1606859828.897901) vcan0 183#0000000600001032
(1606859828.897949) vcan0 143#6B6B00FF
(1606859828.899060) vcan0 039#0039
(1606859828.900222) vcan0 095#800007F400000026
(1606859828.902439) vcan0 166#D0320036
(1606859828.903572) vcan0 158#0000000000000037
(1606859828.903631) vcan0 161#000005500108003A
(1606859828.904746) vcan0 191#010010A1410029
(1606859828.904793) vcan0 133#0000000089
(1606859828.904810) vcan0 136#000200000000000C
(1606859828.904825) vcan0 13A#000000000000000A
(1606859828.904838) vcan0 13F#0000000500000000
(1606859828.905940) vcan0 164#0000C01AA8000022
(1606859828.905969) vcan0 17C#0000000010000003
(1606859828.905979) vcan0 18E#00004D
(1606859828.905989) vcan0 1CF#80050000002D
(1606859828.905997) vcan0 1DC#0200002A
(1606859828.907089) vcan0 183#0000000C0000100F
(1606859828.908223) vcan0 143#6B6B00C2
(1606859828.910435) vcan0 095#800007F400000035
(1606859828.910502) vcan0 1A4#0000000800000001
(1606859828.910524) vcan0 1AA#7FFF000000006801
(1606859828.910540) vcan0 1B0#000F0000000148
(1606859828.911606) vcan0 1D0#000000000000000A
(1606859828.912542) vcan0 244#0000000169
(1606859828.912739) vcan0 166#D0320009
(1606859828.912768) vcan0 039#000C
(1606859828.913860) vcan0 158#000000000000000A
(1606859828.913891) vcan0 161#000005500108000D
(1606859828.913901) vcan0 191#010010A1410038
(1606859828.913910) vcan0 133#0000000098
(1606859828.915076) vcan0 136#000200000000001B
(1606859828.915108) vcan0 13A#0000000000000019
(1606859828.915118) vcan0 13F#000000050000001F
(1606859828.915144) vcan0 164#0000C01AA8000031
(1606859828.915169) vcan0 17C#0000000010000012
(1606859828.916259) vcan0 18E#00005C
(1606859828.917376) vcan0 183#0000001000001019
(1606859828.917410) vcan0 143#6B6B00D1
(1606859828.919639) vcan0 095#800007F400000008
(1606859828.923001) vcan0 166#D0320018
(1606859828.924134) vcan0 158#0000000000000019
(1606859828.924173) vcan0 161#000005500108001C
(1606859828.924188) vcan0 191#010010A141000B
(1606859828.924203) vcan0 133#00000000A7
(1606859828.924217) vcan0 136#000200000000002A
(1606859828.925331) vcan0 13A#0000000000000028
(1606859828.925380) vcan0 13F#000000050000002E
(1606859828.925407) vcan0 164#0000C01AA8000004
(1606859828.925428) vcan0 17C#0000000010000021
(1606859828.925446) vcan0 18E#00006B
(1606859828.925462) vcan0 1CF#80050000003C
(1606859828.926568) vcan0 1DC#02000039
(1606859828.926631) vcan0 183#0000000C0000102D
(1606859828.927729) vcan0 143#6B6B00E0
(1606859828.927942) vcan0 244#000000015B
(1606859828.928850) vcan0 039#001B
(1606859828.929972) vcan0 095#800007F400000017
(1606859828.930010) vcan0 1A4#0000000800000010
(1606859828.931112) vcan0 1AA#7FFF000000006711
(1606859828.931165) vcan0 1B0#000F0000000157
(1606859828.931185) vcan0 1D0#000000000000000A
(1606859828.932290) vcan0 166#D0320027
(1606859828.933413) vcan0 158#0000000000000028
(1606859828.934537) vcan0 161#000005500108002B
(1606859828.934587) vcan0 191#010010A141001A
(1606859828.934605) vcan0 133#00000000B6
(1606859828.934621) vcan0 136#0002000000000039
(1606859828.934637) vcan0 13A#0000000000000037
(1606859828.934653) vcan0 13F#000000050000003D
(1606859828.935795) vcan0 164#0000C01AA8000013
(1606859828.935982) vcan0 17C#0000000010000030
(1606859828.936030) vcan0 18E#00007A
(1606859828.936065) vcan0 294#040B0002CF5A000E
(1606859828.936119) vcan0 21E#03E83745220601
(1606859828.937329) vcan0 183#0000001000001037
(1606859828.937357) vcan0 143#6B6B00FF
(1606859828.938228) vcan0 244#0000000141
(1606859828.939544) vcan0 095#800007F400000026
(1606859828.941707) vcan0 039#002A
(1606859828.942855) vcan0 166#D0320036
(1606859828.943978) vcan0 158#0000000000000037
(1606859828.944019) vcan0 161#000005500108003A
(1606859828.944039) vcan0 191#010010A1410029
(1606859828.944054) vcan0 133#0000000089
(1606859828.945157) vcan0 136#000200000000000C
(1606859828.945199) vcan0 13A#000000000000000A
(1606859828.945219) vcan0 13F#0000000500000000
(1606859828.945235) vcan0 164#0000C01AA8000022
(1606859828.945251) vcan0 17C#0000000010000003
(1606859828.945267) vcan0 18E#00004D
(1606859828.946358) vcan0 1CF#80050000000F
(1606859828.946386) vcan0 1DC#0200000C
(1606859828.947491) vcan0 183#0000000C0000100F
(1606859828.947535) vcan0 143#6B6B00C2
(1606859828.948644) vcan0 333#0000000000001E
(1606859828.949822) vcan0 095#800007F400000035
(1606859828.950966) vcan0 1A4#000000080000002F
(1606859828.951019) vcan0 1AA#7FFF000000006720
(1606859828.951040) vcan0 1B0#000F0000000166
(1606859828.951066) vcan0 1D0#000000000000000A
(1606859828.952211) vcan0 166#D0320009
(1606859828.953306) vcan0 305#8017
(1606859828.953363) vcan0 158#000000000000000A
(1606859828.953665) vcan0 244#00000001EC
(1606859828.954497) vcan0 161#000005500108000D
(1606859828.954577) vcan0 191#010010A1410038
(1606859828.954605) vcan0 133#0000000098
(1606859828.955036) vcan0 136#000200000000001B
(1606859828.955084) vcan0 13A#0000000000000019
(1606859828.955101) vcan0 13F#000000050000001F
(1606859828.955117) vcan0 164#0000C01AA8000031
(1606859828.955131) vcan0 17C#0000000010000012
(1606859828.956257) vcan0 18E#00005C
(1606859828.957394) vcan0 183#0000000900001011
(1606859828.957454) vcan0 143#6B6B00D1
(1606859828.959637) vcan0 095#800007F400000008
(1606859828.960758) vcan0 039#0039
(1606859828.962962) vcan0 166#D0320018
(1606859828.964084) vcan0 158#0000000000000019
(1606859828.964115) vcan0 161#000005500108001C
(1606859828.964126) vcan0 191#010010A141000B
(1606859828.964135) vcan0 133#00000000A7
(1606859828.964144) vcan0 136#000200000000002A
(1606859828.965244) vcan0 13A#0000000000000028
(1606859828.965276) vcan0 13F#000000050000002E
(1606859828.965286) vcan0 164#0000C01AA8000004
(1606859828.965297) vcan0 17C#0000000010000021
(1606859828.965306) vcan0 18E#00006B
(1606859828.966630) vcan0 1CF#80050000001E
(1606859828.966679) vcan0 1DC#0200001B
(1606859828.966701) vcan0 320#000012
(1606859828.966719) vcan0 324#7465000000000E1A
(1606859828.966735) vcan0 37C#FD00FD00097F001A
(1606859828.966752) vcan0 40C#0236323239533039
(1606859828.966768) vcan0 183#0000000E0000102B
(1606859828.967909) vcan0 454#23EF36
(1606859828.967946) vcan0 143#6B6B00E0
(1606859828.969207) vcan0 244#00000001D4
(1606859828.970128) vcan0 095#800007F400000017
(1606859828.970164) vcan0 1A4#000000080000003E
(1606859828.971269) vcan0 1AA#7FFF00000000683E
(1606859828.971299) vcan0 1B0#000F0000000175
(1606859828.971313) vcan0 1D0#000000000000000A
(1606859828.972426) vcan0 166#D0320027
(1606859828.973552) vcan0 158#0000000000000028
(1606859828.973586) vcan0 039#000C
(1606859828.973601) vcan0 161#000005500108002B
(1606859828.974704) vcan0 191#010010A141001A
(1606859828.974738) vcan0 133#00000000B6
(1606859828.974753) vcan0 136#0002000000000039
(1606859828.974768) vcan0 13A#0000000000000037
(1606859828.974781) vcan0 13F#000000050000003D
(1606859828.975887) vcan0 164#0000C01AA8000013
(1606859828.975930) vcan0 17C#0000000010000030
(1606859828.975950) vcan0 18E#00007A
(1606859828.975964) vcan0 294#040B0002CF5A001D
(1606859828.975980) vcan0 21E#03E83745220610
(1606859828.978168) vcan0 183#0000000A0000103E
(1606859828.978212) vcan0 143#6B6B00FF
(1606859828.980388) vcan0 095#800007F400000026
(1606859828.982580) vcan0 166#D0320036
(1606859828.983706) vcan0 158#0000000000000037
(1606859828.983763) vcan0 161#000005500108003A
(1606859828.983781) vcan0 191#010010A1410029
(1606859828.984771) vcan0 244#00000001EA
(1606859828.984887) vcan0 133#0000000089
(1606859828.984927) vcan0 136#000200000000000C
(1606859828.984943) vcan0 13A#000000000000000A
(1606859828.984956) vcan0 13F#0000000500000000
(1606859828.984970) vcan0 164#0000C01AA8000022
(1606859828.986087) vcan0 17C#0000000010000003
(1606859828.986129) vcan0 18E#00004D
(1606859828.986145) vcan0 1CF#80050000002D
(1606859828.986159) vcan0 1DC#0200002A
(1606859828.987275) vcan0 183#0000000700001004
(1606859828.987313) vcan0 143#6B6B00C2
(1606859828.990653) vcan0 095#800007F400000035
(1606859828.990712) vcan0 039#001B
(1606859828.990731) vcan0 1A4#0000000800000001
(1606859828.990749) vcan0 1AA#7FFF000000006801
(1606859828.990765) vcan0 1B0#000F0000000148
(1606859828.990781) vcan0 1D0#000000000000000A
(1606859828.992965) vcan0 166#D0320009
(1606859828.994091) vcan0 158#000000000000000A
(1606859828.994147) vcan0 161#000005500108000D
(1606859828.994162) vcan0 191#010010A1410038
(1606859828.994176) vcan0 133#0000000098
(1606859828.994188) vcan0 136#000200000000001B
(1606859828.995257) vcan0 244#0000000156
(1606859828.995302) vcan0 13A#0000000000000019
(1606859828.995339) vcan0 13F#000000050000001F
(1606859828.995351) vcan0 164#0000C01AA8000031
(1606859828.995364) vcan0 17C#0000000010000012
(1606859828.995375) vcan0 18E#00005C
(1606859828.996506) vcan0 309#00000000000000A2
(1606859828.996619) vcan0 428#01040000521C01
(1606859828.996639) vcan0 405#000004000000000B
(1606859828.997746) vcan0 183#0000000D0000101D
(1606859828.997777) vcan0 143#6B6B00D1
(1606859828.999959) vcan0 095#800007F400000008
(1606859829.002200) vcan0 166#D0320018
(1606859829.003304) vcan0 158#0000000000000019
(1606859829.004427) vcan0 161#000005500108001C
(1606859829.004459) vcan0 191#010010A141000B
(1606859829.004473) vcan0 039#002A
(1606859829.004482) vcan0 133#00000000A7
(1606859829.004492) vcan0 136#000200000000002A
(1606859829.004501) vcan0 13A#0000000000000028
(1606859829.005606) vcan0 13F#000000050000002E
(1606859829.005654) vcan0 164#0000C01AA8000004
(1606859829.005674) vcan0 17C#0000000010000021
(1606859829.005688) vcan0 18E#00006B
(1606859829.005702) vcan0 1CF#80050000003C
(1606859829.006806) vcan0 1DC#02000039
(1606859829.006838) vcan0 183#0000000900001020
(1606859829.007951) vcan0 143#6B6B00E0
(1606859829.010142) vcan0 095#800007F400000017
(1606859829.010175) vcan0 1A4#0000000800000010
(1606859829.010186) vcan0 1AA#7FFF000000006711
(1606859829.010718) vcan0 244#00000001D7
(1606859829.011300) vcan0 1B0#000F0000000157
(1606859829.011363) vcan0 1D0#000000000000000A
(1606859829.012475) vcan0 166#D0320027
(1606859829.013638) vcan0 158#0000000000000028
(1606859829.013669) vcan0 161#000005500108002B
(1606859829.013680) vcan0 191#010010A141001A
(1606859829.014784) vcan0 133#00000000B6
(1606859829.014815) vcan0 136#0002000000000039
(1606859829.014826) vcan0 13A#0000000000000037
(1606859829.014837) vcan0 13F#000000050000003D
(1606859829.015942) vcan0 164#0000C01AA8000013
(1606859829.015977) vcan0 17C#0000000010000030
(1606859829.015988) vcan0 18E#00007A
(1606859829.016000) vcan0 294#040B0002CF5A002C
(1606859829.016023) vcan0 21E#03E8374522062F
(1606859829.017149) vcan0 183#0000000E0000103A
(1606859829.018296) vcan0 143#6B6B00FF
(1606859829.020492) vcan0 095#800007F400000026
(1606859829.020530) vcan0 5A1#960000000000623E
(1606859829.021046) vcan0 244#0000000189
(1606859829.022731) vcan0 166#D0320036
(1606859829.023856) vcan0 158#0000000000000037
(1606859829.023888) vcan0 161#000005500108003A
(1606859829.023903) vcan0 191#010010A1410029
(1606859829.023916) vcan0 133#0000000089
(1606859829.025028) vcan0 039#0039
(1606859829.025093) vcan0 136#000200000000000C
(1606859829.025130) vcan0 13A#000000000000000A
(1606859829.025146) vcan0 13F#0000000500000000
(1606859829.025224) vcan0 164#0000C01AA8000022
(1606859829.025279) vcan0 17C#0000000010000003
(1606859829.026375) vcan0 18E#00004D
(1606859829.026400) vcan0 1CF#80050000000F
(1606859829.026410) vcan0 1DC#0200000C
(1606859829.027505) vcan0 183#0000000A00001001
(1606859829.027540) vcan0 143#6B6B00C2
(1606859829.029776) vcan0 095#800007F400000035
(1606859829.030931) vcan0 1A4#000000080000002F
(1606859829.030963) vcan0 1AA#7FFF000000006720
(1606859829.030975) vcan0 1B0#000F0000000166
(1606859829.030985) vcan0 1D0#000000000000000A
(1606859829.032077) vcan0 166#D0320009
(1606859829.034273) vcan0 158#000000000000000A
(1606859829.034318) vcan0 161#000005500108000D
(1606859829.034334) vcan0 191#010010A1410038
(1606859829.034348) vcan0 133#0000000098
(1606859829.034361) vcan0 136#000200000000001B
(1606859829.034377) vcan0 13A#0000000000000019
(1606859829.035477) vcan0 13F#000000050000001F
(1606859829.035515) vcan0 164#0000C01AA8000031
(1606859829.035530) vcan0 17C#0000000010000012
(1606859829.035541) vcan0 18E#00005C
(1606859829.036501) vcan0 244#00000001E2
(1606859829.037725) vcan0 183#0000000700001013
(1606859829.037763) vcan0 143#6B6B00D1
(1606859829.038865) vcan0 039#000C
(1606859829.039951) vcan0 095#800007F400000008
(1606859829.042135) vcan0 166#D0320018
(1606859829.043238) vcan0 158#0000000000000019
(1606859829.044377) vcan0 161#000005500108001C
(1606859829.044395) vcan0 191#010010A141000B
(1606859829.044404) vcan0 133#00000000A7
(1606859829.044413) vcan0 136#000200000000002A
(1606859829.044422) vcan0 13A#0000000000000028
(1606859829.045494) vcan0 13F#000000050000002E
(1606859829.045510) vcan0 164#0000C01AA8000004
(1606859829.045519) vcan0 17C#0000000010000021
(1606859829.045528) vcan0 18E#00006B
(1606859829.045536) vcan0 1CF#80050000001E
(1606859829.046630) vcan0 1DC#0200001B
(1606859829.046661) vcan0 183#0000000500001024
(1606859829.047763) vcan0 143#6B6B00E0
(1606859829.048879) vcan0 333#0000000000002D
(1606859829.049962) vcan0 095#800007F400000017
(1606859829.050012) vcan0 1A4#000000080000003E
(1606859829.051115) vcan0 1AA#7FFF00000000683E
(1606859829.051145) vcan0 1B0#000F0000000175
(1606859829.051159) vcan0 1D0#000000000000000A
(1606859829.051949) vcan0 244#00000001AB
(1606859829.052263) vcan0 039#001B
(1606859829.052301) vcan0 166#D0320027
(1606859829.053404) vcan0 158#0000000000000028
(1606859829.054614) vcan0 161#000005500108002B
(1606859829.054669) vcan0 191#010010A141001A
(1606859829.054685) vcan0 133#00000000B6
(1606859829.054707) vcan0 136#0002000000000039
(1606859829.054721) vcan0 13A#0000000000000037
(1606859829.054739) vcan0 13F#000000050000003D
(1606859829.055843) vcan0 164#0000C01AA8000013
(1606859829.055889) vcan0 17C#0000000010000030
(1606859829.055907) vcan0 18E#00007A
(1606859829.055924) vcan0 294#040B0002CF5A003B
(1606859829.055940) vcan0 21E#03E8374522063E
(1606859829.057182) vcan0 183#0000000300001035
(1606859829.058308) vcan0 143#6B6B00FF
(1606859829.058338) vcan0 305#8026
(1606859829.060549) vcan0 095#800007F400000026
(1606859829.062364) vcan0 244#00000001B0
(1606859829.062785) vcan0 166#D0320036
(1606859829.064181) vcan0 158#0000000000000037
(1606859829.064239) vcan0 161#000005500108003A
(1606859829.064255) vcan0 191#010010A1410029
(1606859829.064268) vcan0 133#0000000089
(1606859829.064281) vcan0 136#000200000000000C
(1606859829.065397) vcan0 13A#000000000000000A
(1606859829.065456) vcan0 13F#0000000500000000
(1606859829.065475) vcan0 164#0000C01AA8000022
(1606859829.065489) vcan0 039#002A
(1606859829.065532) vcan0 17C#0000000010000003
(1606859829.065547) vcan0 18E#00004D
(1606859829.066644) vcan0 1CF#80050000002D
(1606859829.066692) vcan0 1DC#0200002A
(1606859829.066710) vcan0 320#000021
(1606859829.066726) vcan0 324#7465000000000E29
(1606859829.066744) vcan0 37C#FD00FD00097F0029
(1606859829.066787) vcan0 183#0000000A00001001
(1606859829.067914) vcan0 143#6B6B00C2
(1606859829.070137) vcan0 095#800007F400000035
(1606859829.070188) vcan0 1A4#0000000800000001
(1606859829.070205) vcan0 1AA#7FFF000000006801
(1606859829.071349) vcan0 1B0#000F0000000148
(1606859829.071432) vcan0 1D0#000000000000000A
(1606859829.072566) vcan0 166#D0320009
(1606859829.073790) vcan0 158#000000000000000A
(1606859829.073852) vcan0 161#000005500108000D
(1606859829.073871) vcan0 191#010010A1410038
(1606859829.073886) vcan0 133#0000000098
(1606859829.074993) vcan0 136#000200000000001B
(1606859829.075047) vcan0 13A#0000000000000019
(1606859829.075065) vcan0 13F#000000050000001F
(1606859829.075081) vcan0 164#0000C01AA8000031
(1606859829.076186) vcan0 17C#0000000010000012
(1606859829.076230) vcan0 18E#00005C
(1606859829.077344) vcan0 183#0000000700001013
(1606859829.077393) vcan0 143#6B6B00D1
(1606859829.077988) vcan0 244#0000000125
(1606859829.079608) vcan0 095#800007F400000008
(1606859829.082934) vcan0 166#D0320018
(1606859829.084076) vcan0 158#0000000000000019
(1606859829.084121) vcan0 161#000005500108001C
(1606859829.084138) vcan0 191#010010A141000B
(1606859829.084152) vcan0 133#00000000A7
(1606859829.084165) vcan0 136#000200000000002A
(1606859829.085266) vcan0 13A#0000000000000028
(1606859829.085315) vcan0 13F#000000050000002E
(1606859829.085330) vcan0 164#0000C01AA8000004
(1606859829.085345) vcan0 039#0039
(1606859829.085361) vcan0 17C#0000000010000021
(1606859829.085376) vcan0 18E#00006B
(1606859829.086482) vcan0 1CF#80050000003C
(1606859829.086512) vcan0 1DC#02000039
(1606859829.087607) vcan0 183#0000000500001024
(1606859829.087638) vcan0 143#6B6B00E0
(1606859829.088364) vcan0 244#0000000107
(1606859829.089832) vcan0 095#800007F400000017
(1606859829.090987) vcan0 1A4#0000000800000010
(1606859829.091050) vcan0 1AA#7FFF000000006711
(1606859829.091067) vcan0 1B0#000F0000000157
(1606859829.091080) vcan0 1D0#000000000000000A
(1606859829.092197) vcan0 166#D0320027
(1606859829.093305) vcan0 158#0000000000000028
(1606859829.094447) vcan0 161#000005500108002B
(1606859829.094498) vcan0 191#010010A141001A
(1606859829.094514) vcan0 133#00000000B6
(1606859829.094528) vcan0 136#0002000000000039
(1606859829.094542) vcan0 13A#0000000000000037
(1606859829.095660) vcan0 13F#000000050000003D
(1606859829.095711) vcan0 164#0000C01AA8000013
(1606859829.095726) vcan0 17C#0000000010000030
(1606859829.095739) vcan0 18E#00007A
(1606859829.095751) vcan0 294#040B0002CF5A000E
(1606859829.095764) vcan0 21E#03E83745220601
(1606859829.096875) vcan0 309#00000000000000B1
(1606859829.098012) vcan0 183#0000000B0000103D
(1606859829.098052) vcan0 143#6B6B00FF
(1606859829.099191) vcan0 039#000C
(1606859829.100348) vcan0 095#800007F400000026
(1606859829.102547) vcan0 166#D0320036
(1606859829.103667) vcan0 158#0000000000000037
(1606859829.103719) vcan0 161#000005500108003A
(1606859829.103746) vcan0 191#010010A1410029
(1606859829.104035) vcan0 244#00000001F2
(1606859829.104858) vcan0 133#0000000089
(1606859829.104903) vcan0 136#000200000000000C
(1606859829.104920) vcan0 13A#000000000000000A
(1606859829.104936) vcan0 13F#0000000500000000
(1606859829.105000) vcan0 164#0000C01AA8000022
(1606859829.106116) vcan0 17C#0000000010000003
(1606859829.106146) vcan0 18E#00004D
(1606859829.106157) vcan0 1CF#80050000000F
(1606859829.106166) vcan0 1DC#0200000C
(1606859829.107262) vcan0 183#0000000800001003
(1606859829.107326) vcan0 143#6B6B00C2
(1606859829.110630) vcan0 095#800007F400000035
(1606859829.110674) vcan0 1A4#000000080000002F
(1606859829.110691) vcan0 1AA#7FFF000000006720
(1606859829.110705) vcan0 1B0#000F0000000166
(1606859829.110719) vcan0 1D0#000000000000000A
(1606859829.112956) vcan0 166#D0320009
(1606859829.113004) vcan0 039#001B
(1606859829.114108) vcan0 158#000000000000000A
(1606859829.114152) vcan0 161#000005500108000D
(1606859829.114172) vcan0 191#010010A1410038
(1606859829.114186) vcan0 133#0000000098
(1606859829.114202) vcan0 136#000200000000001B
(1606859829.115310) vcan0 13A#0000000000000019
(1606859829.115356) vcan0 13F#000000050000001F
(1606859829.115377) vcan0 164#0000C01AA8000031
(1606859829.115391) vcan0 17C#0000000010000012
(1606859829.115407) vcan0 18E#00005C
(1606859829.117612) vcan0 183#0000000600001014
(1606859829.117668) vcan0 143#6B6B00D1
(1606859829.119614) vcan0 244#0000000134
(1606859829.119650) vcan0 188#00000000
(1606859829.119856) vcan0 095#800007F400000008
(1606859829.122064) vcan0 166#D0320018
(1606859829.124333) vcan0 158#0000000000000019
(1606859829.124385) vcan0 161#000005500108001C
(1606859829.124397) vcan0 191#010010A141000B
(1606859829.124407) vcan0 133#00000000A7
(1606859829.124418) vcan0 136#000200000000002A
(1606859829.124428) vcan0 13A#0000000000000028
(1606859829.125547) vcan0 13F#000000050000002E
(1606859829.125575) vcan0 164#0000C01AA8000004
(1606859829.125585) vcan0 17C#0000000010000021
(1606859829.125594) vcan0 18E#00006B
(1606859829.125603) vcan0 1CF#80050000001E
(1606859829.126689) vcan0 1DC#0200001B
(1606859829.126721) vcan0 183#0000000C0000102D
(1606859829.127856) vcan0 143#6B6B00E0
(1606859829.127892) vcan0 039#002A
(1606859829.130074) vcan0 095#800007F400000017
(1606859829.130119) vcan0 1A4#000000080000003E
(1606859829.131267) vcan0 1AA#7FFF00000000683E
(1606859829.131317) vcan0 1B0#000F0000000175
(1606859829.131346) vcan0 1D0#000000000000000A
(1606859829.132460) vcan0 166#D0320027
(1606859829.133593) vcan0 158#0000000000000028
(1606859829.133626) vcan0 161#000005500108002B
(1606859829.134742) vcan0 191#010010A141001A
(1606859829.135008) vcan0 133#00000000B6
(1606859829.135080) vcan0 136#0002000000000039
(1606859829.135116) vcan0 13A#0000000000000037
(1606859829.135135) vcan0 13F#000000050000003D
(1606859829.135153) vcan0 164#0000C01AA8000013
(1606859829.135170) vcan0 17C#0000000010000030
(1606859829.135225) vcan0 244#000000018F
(1606859829.136279) vcan0 18E#00007A
(1606859829.136321) vcan0 294#040B0002CF5A001D
(1606859829.136344) vcan0 21E#03E83745220610
(1606859829.137455) vcan0 183#000000090000103F
(1606859829.137489) vcan0 143#6B6B00FF
(1606859829.139889) vcan0 095#800007F400000026
(1606859829.142138) vcan0 166#D0320036
(1606859829.143298) vcan0 158#0000000000000037
(1606859829.144412) vcan0 161#000005500108003A
(1606859829.144447) vcan0 191#010010A1410029
(1606859829.144458) vcan0 133#0000000089
(1606859829.144467) vcan0 136#000200000000000C
(1606859829.144476) vcan0 13A#000000000000000A
(1606859829.145581) vcan0 13F#0000000500000000
(1606859829.145632) vcan0 164#0000C01AA8000022
(1606859829.145648) vcan0 17C#0000000010000003
(1606859829.145664) vcan0 18E#00004D
(1606859829.145679) vcan0 1CF#80050000002D
(1606859829.145703) vcan0 1DC#0200002A
(1606859829.146833) vcan0 183#0000000E0000100D
(1606859829.147966) vcan0 143#6B6B00C2
(1606859829.148008) vcan0 039#0039
(1606859829.149115) vcan0 333#0000000000003C
(1606859829.150239) vcan0 095#800007F400000035
(1606859829.150277) vcan0 1A4#0000000800000001
(1606859829.150292) vcan0 1AA#7FFF000000006801
(1606859829.150750) vcan0 244#0000000166
(1606859829.151429) vcan0 1B0#000F0000000148
(1606859829.151491) vcan0 1D0#000000000000000A
(1606859829.152641) vcan0 166#D0320009
(1606859829.153769) vcan0 158#000000000000000A
(1606859829.153795) vcan0 161#000005500108000D
(1606859829.153805) vcan0 191#010010A1410038
(1606859829.154900) vcan0 133#0000000098
(1606859829.154930) vcan0 136#000200000000001B
(1606859829.154941) vcan0 13A#0000000000000019
(1606859829.154950) vcan0 13F#000000050000001F
(1606859829.154959) vcan0 164#0000C01AA8000031
(1606859829.156081) vcan0 17C#0000000010000012
(1606859829.156126) vcan0 18E#00005C
(1606859829.157224) vcan0 183#0000000A00001010
(1606859829.157266) vcan0 143#6B6B00D1
(1606859829.160559) vcan0 095#800007F400000008
(1606859829.161066) vcan0 244#00000001AA
(1606859829.161689) vcan0 305#8035
(1606859829.162825) vcan0 166#D0320018
(1606859829.164054) vcan0 158#0000000000000019
