(1718680048.328362) vcan0 790##4D516B541D670421C
(1718680048.528980) vcan0 060932D1#R8
(1718680048.729466) vcan0 07278C58##77D7EF801C0ADDD2D
(1718680048.930049) vcan0 35E#216CE6094E3A5618
(1718680049.132250) vcan0 03283EF2#F70FA6222DBE3C34
(1718680049.332526) vcan0 1871200F##430C2577B041EE27E
(1718680049.532994) vcan0 4A0#DA4ABC5C790C047A
(1718680049.733554) vcan0 60B##6AEDFF651681CFC2E
(1718680049.933861) vcan0 13ABF683##63E8D3E4BB8DDA65F
(1718680050.135621) vcan0 1E98667F#39500C7554A4A250
(1718680050.336000) vcan0 1704CEB6##51452807EC0C4D157
(1718680050.536470) vcan0 VO1#0EFF277039D0E153
(1718680050.738475) vcan0 VO1#678E1E081BC5C34D
(1718680050.939032) vcan0 03765097#20E3A54CBDBAD62F
(1718680051.140850) vcan0 09622DFA##536C7DA29D2DC6141
(1718680051.342539) vcan0 6E5##53AF95D70A1C1FD57
(1718680051.543033) vcan0 679#5A9FA437BDC63209
(1718680051.743353) vcan0 793#R8
(1718680051.943956) vcan0 526##690A4C6575EB0AE01
(1718680052.144779) vcan0 39E#R8
(1718680052.345211) vcan0 1DAF0EFF##4A03D0F3AB8E1FB25
(1718680052.545680) vcan0 0C0##5759CD255CDE44A03
(1718680052.747578) vcan0 1FAD63AC##69FC1AC44C132027B
(1718680052.948157) vcan0 150ABADA#62F4FF52F9A7FC0A
(1718680053.149404) vcan0 0AA493BC##4B76E2F144B2EDC2A
(1718680053.349793) vcan0 1C9#1B0ED12A9A410B5B
(1718680053.550394) vcan0 0297B2AB##7F8F1B95C4C121727
(1718680053.750598) vcan0 124A7290#D18A6213ED084325
(1718680053.950900) vcan0 0D71C871##7A5EA3E4B25E11E71
(1718680054.152631) vcan0 71B##4F3C56974ED373E04
(1718680054.353221) vcan0 19168792##5AE6A407F58F53D1C
(1718680054.553935) vcan0 710#519D3A27BF83C85E
(1718680054.754369) vcan0 1B6A0C08#0BB2A4091D763A14
(1718680054.955023) vcan0 1475C026#B7B7456FC17CC96F
(1718680055.156435) vcan0 1AF##40D8FE0161BC99301
(1718680055.356896) vcan0 1DE#08D2D626CF9D430E
(1718680055.557925) vcan0 1215BCAE##7F57E627F81CBDB4B
(1718680055.758451) vcan0 13CC44E8#6E031A50902EE633
(1718680055.958782) vcan0 61C##6E8232450E70E041B
(1718680056.161332) vcan0 175EC139#A692CC79FABF7F7E
(1718680056.361586) vcan0 4B1##41736BA1213B3375C
(1718680056.561812) vcan0 5CE#R8
(1718680056.762118) vcan0 02E1BEE1#R8
(1718680056.962495) vcan0 175F12CE##78D518D5A0FBBD904
(1718680057.162917) vcan0 082#R8
(1718680057.363567) vcan0 1FF##6D5418250E4E19E7A
(1718680057.564042) vcan0 00A665BD##6CBF0A21548C5C411
(1718680057.765247) vcan0 372##54285441038F4CD4A
(1718680057.965674) vcan0 02FEBB59##44CA70527FBCCC74A
(1718680058.168873) vcan0 1306D720##5A544BC39A540FE72
(1718680058.371988) vcan0 56B##462F4473FC16E0D63
(1718680058.572325) vcan0 19D545EF#R8
(1718680058.772916) vcan0 189CB061#FA7AB467DB2B8141
(1718680058.973094) vcan0 4CF#C00D203C7B329649
(1718680059.173859) vcan0 68B#C4F75A5B8249E270
(1718680059.374115) vcan0 0B9F7D06#R8
(1718680059.576078) vcan0 507#1C17DB3E87E19C33
(1718680059.776670) vcan0 18975BC2##52C229B262952A52B
(1718680059.977140) vcan0 05E3168F#EBC0B20E66797F64
(1718680060.178026) vcan0 2BB##71BE1972FF0727D73
(1718680060.378278) vcan0 415#R8
(1718680060.579873) vcan0 48B#F8073952703B6028
(1718680060.780230) vcan0 0D93FFBC##5F2844219142D1424
(1718680060.980551) vcan0 2AD##43577271822B5D127
(1718680061.182571) vcan0 652#AA966E5BDC63650D
(1718680061.382898) vcan0 0D6#05B60A3941CB7572
(1718680061.583132) vcan0 07BD76F0#A744F556E42BA567
(1718680061.783493) vcan0 5C2#D49E225BC8FC8D6D
(1718680061.983779) vcan0 10213D9F##545D23076BB9A5C6D
(1718680062.184591) vcan0 0869DA3D##62BD6BC1542952144
(1718680062.385062) vcan0 0EFF5B1D#R8
(1718680062.585394) vcan0 005D398C##6DE0B03377FC59A3B
(1718680062.785840) vcan0 288##75B290049F2B1F926
(1718680062.986632) vcan0 761##7337D6F19C42A687C
(1718680063.187238) vcan0 1064C1DA#A8560D64FDB71F08
(1718680063.388073) vcan0 57C#R8
(1718680063.589087) vcan0 0BDE870B##62E042802461D9150
(1718680063.789307) vcan0 VO1#88B2B214413B462A
(1718680063.989632) vcan0 4DF##5FC9177394153D64A
(1718680064.190583) vcan0 107A9DDA##6C11871064976A554
(1718680064.390988) vcan0 21C##43B289F7BC19B6717
(1718680064.591349) vcan0 150EA56E#R8
(1718680064.792515) vcan0 52D#CC2F6423E44E657C
(1718680064.992954) vcan0 1911E492#57B83011C4455E06
(1718680065.193581) vcan0 1358BC85#R8
(1718680065.394532) vcan0 593##726087F6354CC2172
(1718680065.594952) vcan0 223##4961FF83CDD38D065
(1718680065.795130) vcan0 03693857#R8
(1718680065.995704) vcan0 1614D761##42114C527F19B5664
(1718680066.196105) vcan0 1B94DAA6##7C0139B7F17E49650
(1718680066.399536) vcan0 02FF438C##4FB32FC4C7C0A7F6A
(1718680066.599780) vcan0 1E2CEB52##74050DD70BC930141
(1718680066.800133) vcan0 07CCB34B##5A2603A7AB53EC31C
(1718680067.000386) vcan0 1DB968C8##70A0BE50E5153F91B
(1718680067.200748) vcan0 0BDD2AA0##62F8CC901E93A2108
(1718680067.400982) vcan0 1C3F3B55##549B37E186ADD2022
(1718680067.601197) vcan0 0043C76A##55B797706868F773D
(1718680067.801431) vcan0 51B#9E730E0EE3994A2F
(1718680068.001820) vcan0 699#5FA4C919C7F82265
(1718680068.202136) vcan0 49F#838C2426C339BD2A
(1718680068.402359) vcan0 005EED25##679788047CA70E205
(1718680068.602766) vcan0 383##71BC4DB21D958C878
(1718680068.803168) vcan0 03A5504A##4C293E9001A118931
(1718680069.003951) vcan0 70B#84EEA953579E3852
(1718680069.204203) vcan0 1A2167E0#DD2DB00F85B08455
(1718680069.404497) vcan0 1DBEA17B##6684ACF04A3C54509
(1718680069.604928) vcan0 1E98EEC7#6ABE686E01DA0032
(1718680069.805717) vcan0 148D4AEE##5C413BE5C528BB37B
(1718680070.005941) vcan0 043E8C3D##41CFC9501018E0433
(1718680070.206675) vcan0 037#DBE6CC2BE3BDE61C
(1718680070.407028) vcan0 29D##4FDCE6F4E229CFB26
(1718680070.607423) vcan0 0219BD82#793A34791ED0CA1F
(1718680070.807744) vcan0 056##4A4804F755D1A6F5C
(1718680071.007895) vcan0 30C##401E0B465E7516C1F
(1718680071.209934) vcan0 66B#E82B6D513B9DF741
(1718680071.410363) vcan0 0E2B3FAC#R8
(1718680071.610698) vcan0 4A9##66EAF9B50AADB0D4D
(1718680071.811137) vcan0 649#8E99F46962F5C929
(1718680072.011417) vcan0 1864688B##58491C55090D23D6F
(1718680072.211612) vcan0 09F9CBFD#AEA2080F6F4BB956
(1718680072.411915) vcan0 352#CD652833263E8179
(1718680072.612749) vcan0 18DD45CE##70D90ED1833A82E17
(1718680072.813149) vcan0 0A5ABBF5#R8
(1718680073.013453) vcan0 16D16DFB#00EF3C738BC7EF6A
(1718680073.213658) vcan0 66E#36A3FD378477C538
(1718680073.413962) vcan0 4C4#R8
(1718680073.614293) vcan0 1354FE6B##72F189E585DCBD434
(1718680073.816004) vcan0 07A6BADD#CC168E0BBDFE2C50
(1718680074.016268) vcan0 499#E33CAE498FCC756A
(1718680074.216555) vcan0 029BCCF0##5C274A401A1A68E44
(1718680074.416860) vcan0 1ACABA30#3474341A86847C65
(1718680074.618247) vcan0 0D716334##6124C6C50CFBAAE47
(1718680074.819585) vcan0 748##4533274005A368B11
(1718680075.020147) vcan0 73A#F97BEB7A5BD1B204
(1718680075.220489) vcan0 428##5B89C87390F68A713
(1718680075.421952) vcan0 385##5CC66D463362D2F27
(1718680075.624447) vcan0 3AF##7C5F9A41186F25F5B
(1718680075.825495) vcan0 13496E87##72799EE1F84F9145D
(1718680076.025770) vcan0 1A230D5B##50A7E9142E250B05F
(1718680076.227885) vcan0 12FDCA1C##7B10B5F273172DE18
(1718680076.428274) vcan0 604#8CA8692A70E5C345
(1718680076.628883) vcan0 05552485##7CCB6764AE57A2F21
(1718680076.829408) vcan0 384##7F4E2D634B4070F34
(1718680077.029673) vcan0 18AB49C0#EA343E5B2837E04C
(1718680077.230222) vcan0 0CE32EAF##7AE2940280E5E4C56
(1718680077.432201) vcan0 2D5##592576133EDC5406E
(1718680077.632494) vcan0 59C#CF16F14DBF40E649
(1718680077.832810) vcan0 15502280#R8
(1718680078.033834) vcan0 37C#8E3E1C6AC33DFA27
(1718680078.234728) vcan0 55A##4A8B82949B038622B
(1718680078.435092) vcan0 39C##76440715FE84FA501
(1718680078.635538) vcan0 54E#R8
(1718680078.835984) vcan0 16C5B0BE#R8
(1718680079.036384) vcan0 0687886B##420070016C3434641
(1718680079.237714) vcan0 5EF#82842C0BC1FD6A65
(1718680079.438378) vcan0 0DF13772##7DE56C309F3A06476
(1718680079.639122) vcan0 13DF956C##7B7DE5E1EF112A32D
(1718680079.839718) vcan0 75F##5A14B0559A5D30361
(1718680080.040122) vcan0 405#R8
(1718680080.240506) vcan0 112EAA9D##424EB0E5950A5B81A
(1718680080.440821) vcan0 0C351BFD##683E67742EECEE866
(1718680080.642335) vcan0 1877EDA3#B1122F287102374F
(1718680080.843455) vcan0 733##43200A234014CAA15
(1718680081.043833) vcan0 1E655710#F4EC0E0C94616C1C
(1718680081.244724) vcan0 0A6DCBAB#R8
(1718680081.445163) vcan0 0314C026##6E84ABB3B07967F77
(1718680081.645306) vcan0 1E646E75##65FAEB4737E4DB14E
(1718680081.845490) vcan0 183##4CEF269696D748777
(1718680082.045831) vcan0 0BE1D951#5B43705EEA59B54B
(1718680082.246568) vcan0 60C#5B5CEC1A86D2C240
(1718680082.446802) vcan0 0F8E5C8D##7871E6D56E5BB475B
(1718680082.646949) vcan0 027C0B7C#R8
(1718680082.848145) vcan0 01C391FF##55E17F01A323AE01E
(1718680083.048472) vcan0 16AB6246#39D05F16519E6340
(1718680083.248787) vcan0 699#R8
(1718680083.449201) vcan0 69E#R8
(1718680083.649561) vcan0 1A9AA197##78727867BE47EBA28
(1718680083.849821) vcan0 3E2#6A517D69E3E4345B
(1718680084.050345) vcan0 1FEA6FF2##7C8A07C360D94F473
(1718680084.250605) vcan0 642##727342D349552502F
(1718680084.450765) vcan0 0F1D4B85#C88C304E66A2CC54
(1718680084.651348) vcan0 VO1#B7403015887ED81A
(1718680084.851634) vcan0 487##656687B5FB7F37C45
(1718680085.052263) vcan0 1BA5C692#54C14D7514C32441
(1718680085.253713) vcan0 0DC##6F841DF69CE5F7A57
(1718680085.453911) vcan0 363##7B144AF322E4D476D
(1718680085.654320) vcan0 092BE57A#3BE13B61C37EAD35
(1718680085.854585) vcan0 562#R8
(1718680086.055202) vcan0 620#63961D5CB40E4F0A
(1718680086.255569) vcan0 71B##43C8D2725BC966306
(1718680086.456145) vcan0 592##4738AE04BC70E5732
(1718680086.656589) vcan0 012E4BC8#DBD17B734F248956
(1718680086.857043) vcan0 3D4#1D84032E62A14839
(1718680087.057413) vcan0 00B2C8CE##590EE8F268CAAFE43
(1718680087.257609) vcan0 7CB#4F29AC7904523B61
(1718680087.458549) vcan0 2A7##701468C681646BB01
(1718680087.658996) vcan0 465#CA540A0CEA139729
(1718680087.859764) vcan0 206#A6AAFA2F22B78A4B
(1718680088.061933) vcan0 51A#R8
(1718680088.262557) vcan0 7C4##40CB8A62C86B50B6F
(1718680088.462841) vcan0 429#R8
(1718680088.663701) vcan0 579#R8
(1718680088.864113) vcan0 6AA#4505776672FAE473
(1718680089.064516) vcan0 346##48840A0751A7A9D2D
(1718680089.265426) vcan0 01AA9552##6048E34572BDBA449
(1718680089.465948) vcan0 0AA#R8
(1718680089.666730) vcan0 036#AEE2CE3EA6EE1340
(1718680089.869220) vcan0 0B759ABB##62CA41F2F939B2753
(1718680090.069747) vcan0 315#63EE9752DCDB7C01
(1718680090.270360) vcan0 3BE##71D8FB806D255087D
(1718680090.471011) vcan0 0D2F9462#4550ED70BB33E76E
(1718680090.671237) vcan0 0CD#D5AD841C5407E04F
(1718680090.871941) vcan0 3D9#7FE28419789D141B
(1718680091.072417) vcan0 0EB474CD##469ECC50348E2F27D
(1718680091.272847) vcan0 0294CF18##4EED0063EFEBC3446
(1718680091.473366) vcan0 0D26751B##492585C19B7402A74
(1718680091.673899) vcan0 6F5#941CA775BEB0F26A
(1718680091.874232) vcan0 1C5FABB1##49006FB671C451D55
(1718680092.074539) vcan0 18E856D5##4D7780444BB1FC225
(1718680092.275074) vcan0 008926AC##40F27A275C30DAE27
(1718680092.475456) vcan0 0F27098F#3BABC24209D72A4F
(1718680092.675961) vcan0 7A5#R8
(1718680092.876311) vcan0 0B248A3F#R8
(1718680093.076841) vcan0 0F0##64711522B8A6FE53C
(1718680093.278015) vcan0 00F92DDB#4820D82798DA214D
(1718680093.478334) vcan0 6D9#B51F3F229F19E806
(1718680093.678749) vcan0 08C##75B39AA2C51653128
(1718680093.879937) vcan0 024C606A#R8
(1718680094.081706) vcan0 12A21E50#R8
(1718680094.284000) vcan0 1757B218#B533F06EB21C4862
(1718680094.484293) vcan0 413#R8
(1718680094.684662) vcan0 04C1FE89##43DABAC77E8441F5F
(1718680094.885390) vcan0 1F84CB85#801F412CF1051403
(1718680095.085752) vcan0 735##7911FFC090D701318
(1718680095.286190) vcan0 0EC##45ED54440FB96907B
(1718680095.486715) vcan0 073##5B9B89F165023660A
(1718680095.687703) vcan0 00D9B181##4A50BB579B81CF17B
(1718680095.888582) vcan0 08A53F5A#R8
(1718680096.089076) vcan0 17A926AC#A4DB743570186431
(1718680096.292991) vcan0 0D2186E1#585D83109A512622
(1718680096.493222) vcan0 4D9##58C573A25C544FE7B
(1718680096.693596) vcan0 71D##7D2B41114D0930840
(1718680096.893855) vcan0 14568A30#CB2A993B5F89CF3E
(1718680097.094235) vcan0 1238E385##4AFAC354966394107
(1718680097.294772) vcan0 055##51E5632039FF8430B
(1718680097.495156) vcan0 016B8F88##79198F1051D73FB48
(1718680097.695557) vcan0 435#8D8B5F7A6ADB7F15
(1718680097.895731) vcan0 0E6##5042DA6377C4D2E35
(1718680098.095898) vcan0 1CE08490##741922C31CD21EC52
(1718680098.297355) vcan0 053E4713#9EB5F412B6CBF371
(1718680098.499885) vcan0 069#1655C330E7A30F7E
(1718680098.700466) vcan0 1C5##74EDD5005F458D973
(1718680098.900849) vcan0 36C##694511D7FCAB17368
(1718680099.103078) vcan0 050EEA25#E7246F3129790343
(1718680099.303981) vcan0 074##6935483587059FD28
(1718680099.504474) vcan0 198##6ECA62B5E19FF587E
(1718680099.705028) vcan0 12E#E7204551D6012179
(1718680099.905274) vcan0 0439D685#8CCD146B85512B6E
(1718680100.106069) vcan0 2A2##76DF53A6CDD7A8E53
(1718680100.306521) vcan0 2BB#D1D3674782DEB452
(1718680100.506910) vcan0 06852565##54C90283B1CC9FD63
(1718680100.707198) vcan0 533##646420127E46D090C
(1718680100.909187) vcan0 6D9#54C7063502FF174F
(1718680101.112968) vcan0 13326E41#1CFE704D9A1EB87C
(1718680101.315083) vcan0 1EB61F03##77020D975B0272177
(1718680101.515581) vcan0 5FC#36794C6576ACB735
(1718680101.716854) vcan0 11876EA3##75327460907359712
(1718680101.917222) vcan0 325##789134C658547223D
(1718680102.122045) vcan0 3D6##6A21020211530C762
(1718680102.324592) vcan0 082152E8#F99DD06EB1BE7225
(1718680102.525183) vcan0 03D7654E#B4BD8A7433025457
(1718680102.725561) vcan0 01FBBBD0##7CD200C54FE7A9459
(1718680102.926651) vcan0 09E5413D##4AEA2B5505BD0A163
(1718680103.128431) vcan0 16021BE4#R8
(1718680103.328995) vcan0 029FA425##5DF74303AE5CB9C4A
(1718680103.531124) vcan0 069##66B13BF07D4BF800A
(1718680103.732269) vcan0 08DF240D##7E9EF476D4885FD4C
(1718680103.932774) vcan0 1C188DE3#FA437072B660A638
(1718680104.133472) vcan0 06FB01AE#E962FA0FC0C6F936
(1718680104.333632) vcan0 3B6##7BE418E105198A809
(1718680104.535455) vcan0 0143E46C##4AC684A6D2DF4BE58
(1718680104.735961) vcan0 06A3E57D#05345800D88ACF1E
(1718680104.936280) vcan0 0E5##4BE566C69EC28911C
(1718680105.137486) vcan0 229##7C1E811278D5DF619
(1718680105.341079) vcan0 0AA##5D5E2F3662B050B0B
(1718680105.542169) vcan0 196426CF#E165B143BE596270
(1718680105.742437) vcan0 13ABC8CB#R8
(1718680105.942751) vcan0 17EA623C#4C7EFE7275119E65
(1718680106.143206) vcan0 0048E6F8#A2055D3EFA467430
(1718680106.343864) vcan0 1A7##5D2D1434F18563010
(1718680106.544595) vcan0 090#057FC12CDA134353
(1718680106.745459) vcan0 13D367C6#R8
(1718680106.945700) vcan0 43D#1A26F14EFEA69F58
(1718680107.146357) vcan0 3FC#BC0002498AA3F06D
(1718680107.347850) vcan0 105E213B##58589465748A1001E
(1718680107.550295) vcan0 0A4507D2##5BDB29E0320CA7641
(1718680107.750545) vcan0 05F##61A11EB7140BB7A11
(1718680107.950894) vcan0 012EE2ED##55911AB2193D4EE79
(1718680108.151966) vcan0 0E6C905E#R8
(1718680108.353354) vcan0 1D5#26BFA06794386D0A
(1718680108.554496) vcan0 541##492DF0C631F292A3C
(1718680108.754778) vcan0 0C0EE04F#R8
(1718680108.956147) vcan0 62E##64C67834D0185B544
(1718680109.157169) vcan0 20A#224F2C06CB4C3476
(1718680109.357896) vcan0 1817603C#0B08AF0770C4CE13
(1718680109.558402) vcan0 095A1964#0499BD0DA74E2533
(1718680109.759182) vcan0 172##4DEECDF56E6A1061A
(1718680109.959601) vcan0 1E80AC04##57BDA73245A89F323
(1718680110.161179) vcan0 0780BA0D#79B21D608202473E
(1718680110.361491) vcan0 722#R8
(1718680110.561798) vcan0 7D3#E820B21451334057
(1718680110.762144) vcan0 1ADE700A#R8
(1718680110.962382) vcan0 027##5B7E05B3370133C4C
(1718680111.163852) vcan0 1BB#1762617F4E4B4476
(1718680111.364935) vcan0 16414EF5#35ED4A1074D66331
(1718680111.565428) vcan0 14BEC7B0#R8
(1718680111.765775) vcan0 15751247#R8
(1718680111.968343) vcan0 15E55748#00B8CB3FBA66474B
(1718680112.169122) vcan0 147DD8E8##60B9A8722F8D0A17D
(1718680112.370508) vcan0 227##43EED2E1D39195202
(1718680112.570756) vcan0 5F5##7A92C8E4EDA439D43
(1718680112.771188) vcan0 6C0#298FE139DD42AD2D
(1718680112.971498) vcan0 0A2C7C5E#5219115FAED8F238
(1718680113.173718) vcan0 120##7ED64C742CBC52A3B
(1718680113.373994) vcan0 3AF#E5E1F92AD11C8B29
(1718680113.574268) vcan0 0AC599E6##58B83D27412D2FA31
(1718680113.774787) vcan0 596##70AA39C2FC1BB9F2E
(1718680113.975257) vcan0 0CCB9048#R8
(1718680114.175739) vcan0 1A3##7E61D1310EEA5FA2E
(1718680114.376590) vcan0 09F4AD0F##4CCE8A75C186EA071
(1718680114.577163) vcan0 1BB9021E#C646932A7B6D0C13
(1718680114.777772) vcan0 3B4##74733374EA606FF59
(1718680114.978267) vcan0 1931152C##478238A035AEA0539
(1718680115.179592) vcan0 703##46CBC006BE1213A23
(1718680115.381158) vcan0 776##6A2DDD95157FC0C17
(1718680115.581325) vcan0 29C##763D68263FC4DBF04
(1718680115.781529) vcan0 1395F44A##7EBF3B933A244BB4F
(1718680115.981731) vcan0 1061DCB7#R8
(1718680116.182097) vcan0 0BEEF980#4238B864135A3C3C
(1718680116.383043) vcan0 389#BA603B1697448751
(1718680116.583563) vcan0 432##5F12E8D0AC82F1710
(1718680116.784791) vcan0 158DEB5D#A9515133CFEFD821
(1718680116.985577) vcan0 052B2F4B##427ECE538923A9477
(1718680117.186118) vcan0 1C68C28A##58E88537C2696420A
(1718680117.386497) vcan0 479#C8DAFD592E58894D
(1718680117.589682) vcan0 582#F522351F05388A0C
(1718680117.790234) vcan0 03ED5B37##41992C648372C9260
(1718680117.990518) vcan0 1F01F2D3#CF7019327747FD62
(1718680118.191058) vcan0 1CA69FC0#3F7714733AA2E90A
(1718680118.392673) vcan0 0E9##70A92C22CF1D55F42
(1718680118.592937) vcan0 631#8310F4391CDA8733
(1718680118.793443) vcan0 16479912##64270CA3D90F70F12
(1718680118.993807) vcan0 17C84B0B##6BE4F995FBC6EC426
(1718680119.194377) vcan0 1ECE72B3#C1A64E33905F6A3A
(1718680119.396213) vcan0 0DA##6C88BFC1AAB949839
(1718680119.596604) vcan0 0D15FC97#22DC951CB2A2DE53
(1718680119.797035) vcan0 0FAA5362##5ED44C85E7527F13B
(1718680119.997441) vcan0 0B8AD6F7##667FD507E7F14A161
(1718680120.198083) vcan0 5EA#9BEE2815E3954473
(1718680120.398464) vcan0 6DE#R8
(1718680120.598997) vcan0 04EDDD31#442BA67B7682DD1D
(1718680120.799438) vcan0 205#07E24758CF1D7866
(1718680120.999816) vcan0 5CF#7AB210208D362106
(1718680121.201176) vcan0 69D##540D9FF59BD06174A
(1718680121.402406) vcan0 18C81E2D##7332E08064AFE6002
(1718680121.603449) vcan0 39A#C91202644C4A8635
(1718680121.803669) vcan0 165#2FE0CA2881E02A2B
(1718680122.004172) vcan0 0E1F6DA3##4099D0C002C0ADA36
(1718680122.205215) vcan0 04D#A28CB754B99AC976
(1718680122.405538) vcan0 6A9##488B8415D32A5B155
(1718680122.606244) vcan0 302#R8
(1718680122.806908) vcan0 15D2B500##79C4DB52A9EDB4906
(1718680123.007494) vcan0 10BD7BCF#E8D9AA0851C8ED32
(1718680123.208002) vcan0 0CACECB2#9D127468EDE0B471
(1718680123.408421) vcan0 113EF2CC##56EC1DF1C5A4EF631
(1718680123.608760) vcan0 1CEC5E77##78658D06844AB6B52
(1718680123.809257) vcan0 528#FD45354917C14643
(1718680124.009678) vcan0 685##44966F8184A30CB0A
(1718680124.209974) vcan0 14CB4209##52977696B2763C25D
(1718680124.412084) vcan0 161EC4C5#C53E0C6436CA3819
(1718680124.612389) vcan0 0AE#8792264CFDE7F27B
(1718680124.813644) vcan0 524#EAC8A76D77F33B3F
(1718680125.013962) vcan0 0A878A59#D141327160F83705
(1718680125.215079) vcan0 257#A4A3A357950F1340
(1718680125.415906) vcan0 00D8E9A1##7ACD0590351D31102
(1718680125.616465) vcan0 6F5##59C03DD0CAE51196B
(1718680125.816755) vcan0 18467AC5##7D5B4DB480870BB3B
(1718680126.017115) vcan0 39A##63F3AF4541E804155
(1718680126.217525) vcan0 4C6#1B683451A8110373
(1718680126.419759) vcan0 1EDC3105##61F053F32DC098F1B
(1718680126.620113) vcan0 6F0##73C02C7202FA4D770
(1718680126.820432) vcan0 186AA5E1##5C4B3EA30C760FE14
(1718680127.020808) vcan0 470##418341017A9779360
(1718680127.221556) vcan0 03ED37B4#57C9AC4B6434B461
(1718680127.422151) vcan0 14887E2C#R8
(1718680127.622459) vcan0 6AC##52172DA7F0F7E0F5B
(1718680127.822807) vcan0 23C##4B78F124E5D1D3469
(1718680128.022962) vcan0 4D7##43927C304A0C64E59
(1718680128.223242) vcan0 058A2976##5CF6A264A0FBD3621
(1718680128.423629) vcan0 1B111E93##5D61D3536D95E3837
(1718680128.623882) vcan0 0D4551EE##482D6CB17695EEC7F
(1718680128.824321) vcan0 03789FD9##4CD92A0611C3C660D
(1718680129.024873) vcan0 1F10373A#202EFF37CC8F7139
(1718680129.225377) vcan0 041##5DB0D811459C1F204
(1718680129.425753) vcan0 592##7B6DE266EC085D318
(1718680129.626822) vcan0 12EA05F0#604C2272310EA806
(1718680129.827978) vcan0 730##540CBDE27BDFE6836
(1718680130.028472) vcan0 1E13E916##4965DA16DC778AF66
(1718680130.230434) vcan0 419#30D79B66A7C48B1C
(1718680130.430837) vcan0 1FD##4C400F229F8F1E660
(1718680130.631574) vcan0 6E4#R8
(1718680130.831730) vcan0 0ED98F9F#7778B33DA349B322
(1718680131.032032) vcan0 0BDA572E#63CF863B9B5F5274
(1718680131.233200) vcan0 3C4##7CC6DFA7A848C3837
(1718680131.433342) vcan0 10C#418BA16DB7A84B21
(1718680131.634013) vcan0 0D7##47E21FB07265D462C
(1718680131.834607) vcan0 0AE#CE21D248E3F09549
(1718680132.035035) vcan0 292#DBE27C2AE403207E
(1718680132.236334) vcan0 49F##502BBE0369B20806E
(1718680132.437243) vcan0 37A##73F6A33116F211C05
(1718680132.637433) vcan0 1A2#0A816E79C6E7323F
(1718680132.837689) vcan0 6D6##54A746B765A285564
(1718680133.038234) vcan0 78B##412D1A005044A2F18
(1718680133.238509) vcan0 290##42BA7754453050020
(1718680133.438637) vcan0 0D47C8F9##736F69569EB4D0633
(1718680133.638875) vcan0 1412D911##6CF512631013DC154
(1718680133.839086) vcan0 4D1#9C5D4143EE31974C
(1718680134.039259) vcan0 1474C7DB##65D53B351F3CA097D
(1718680134.240098) vcan0 468##7B9B23C3CE456921B
(1718680134.440946) vcan0 703##73F7FE77F21EBCC56
(1718680134.641505) vcan0 051##72535FC6EF10E0556
(1718680134.841812) vcan0 1371DC50#44140576202E570F
(1718680135.042087) vcan0 1F9B0A7A#0B7C5D42D490C540
(1718680135.242402) vcan0 1383CDDA##6D5CD86153B21964C
(1718680135.442794) vcan0 372#29532D19F71A2638
(1718680135.643656) vcan0 0AE0A686#EBE52F35CBF46B4E
(1718680135.843934) vcan0 0A4##7B04BFE692D3E8D75
(1718680136.044287) vcan0 2EF#4E295A4C36E6C93A
(1718680136.244912) vcan0 673#27F5CE10215E9202
(1718680136.445270) vcan0 16B#428CE9110DE0812F
(1718680136.645439) vcan0 1447084D#E270477070F71C5A
(1718680136.845715) vcan0 6B7#AB18B326D4B05523
(1718680137.045989) vcan0 1FE06BD4#CBCB7B5B775DD30B
(1718680137.247433) vcan0 10ABB1B6##642523F5A498DC360
(1718680137.447695) vcan0 043D9DF2##676CB5056030A2D26
(1718680137.648040) vcan0 02AAF4C4#39F0F6602184911D
(1718680137.848234) vcan0 561#R8
(1718680138.050594) vcan0 685#096E4B7CB202095F
(1718680138.251888) vcan0 6EB##422FA2539FA4C1F4E
(1718680138.452250) vcan0 1FD912CE##4CEFD7471CC87F750
(1718680138.654359) vcan0 19A##443E5CA5CFD907A4A
(1718680138.854618) vcan0 786#471E3E2BABC5B45F
(1718680139.054967) vcan0 1BD#R8
(1718680139.255898) vcan0 7E8##47BC2FC46BA313B02
(1718680139.456531) vcan0 0720A4BE#B6BF044F15943851
(1718680139.656828) vcan0 0B502DBF##4C7964130168A821F
(1718680139.857077) vcan0 096790EA##610D7A16D4E2A442A
(1718680140.057980) vcan0 4DF#R8
(1718680140.259054) vcan0 1806975E#R8
(1718680140.459516) vcan0 19F#75DF58695CA4580A
(1718680140.659831) vcan0 723#R8
(1718680140.860286) vcan0 1AC0A532##698CBB6065414B22E
(1718680141.060676) vcan0 34E#6AA8EA7F345D0F7B
(1718680141.262605) vcan0 731##74AE7911AB9C5EE58
(1718680141.463810) vcan0 0833BE5A##607F03203D373D462
(1718680141.664187) vcan0 1E6EA221#R8
(1718680141.864537) vcan0 1F434986##77C4BF61C63088665
(1718680142.064716) vcan0 064F2AF1#C0ACDE6F81D6373E
(1718680142.265482) vcan0 776#6070B34220499D4B
(1718680142.465698) vcan0 3F8#745D4F7A997E4400
(1718680142.666102) vcan0 1A3A05DE##5CDDB537B55803140
(1718680142.866514) vcan0 317#0E4620192B15FA43
(1718680143.067201) vcan0 1C533615#FF88CE26AB146405
(1718680143.267524) vcan0 72D##55D46B618B6113771
(1718680143.467861) vcan0 15AC91D9##4191ABD56D883D64F
(1718680143.668170) vcan0 6D9##6595A0E0EDF968531
(1718680143.868504) vcan0 2B9#FFDF227DF88AA108
(1718680144.068791) vcan0 573##49109E608F9CD5139
(1718680144.269150) vcan0 55E##44E4E83796288121C
(1718680144.470206) vcan0 12A3945C#8D9D0C60E7293938
(1718680144.671125) vcan0 06DB268C#923E9D3DA7A2B849
(1718680144.871749) vcan0 165384EF#R8
(1718680145.072084) vcan0 11ACCE77#44322F3B93D3FB47
(1718680145.272460) vcan0 49E#726A8179A0EB8642
(1718680145.473593) vcan0 16A44A71##59976284B095E2B34
(1718680145.676387) vcan0 140E802A#022C7D6D37CBC25F
(1718680145.876937) vcan0 07007A50#9953D57BFE0D6872
(1718680146.077011) vcan0 126#E537A12A1DD99A28
(1718680146.277425) vcan0 083E7677##4C57B53726C5D355C
(1718680146.477740) vcan0 0D433022##5D90B8E473012924A
(1718680146.678312) vcan0 02BD3E1D#R8
(1718680146.880820) vcan0 0C0F5036##68A7FBF591322FA65
(1718680147.081049) vcan0 04E7F623##51C80251A8C22CA70
(1718680147.281567) vcan0 41F##7C3ED8C50D7DB3E51
(1718680147.482082) vcan0 0C62415C##7D5E9A6431C354768
(1718680147.682601) vcan0 0E4821BB##4390EE210364A010B
(1718680147.882795) vcan0 1FE##4A2A7366799931815
(1718680148.083551) vcan0 0EC4B37B#C9A5AA5FBAB8686F
(1718680148.284110) vcan0 12388B8D#R8
(1718680148.484544) vcan0 0060CC2F##467DE76636A76FB00
(1718680148.685114) vcan0 684##4F798C571A0383F7E
(1718680148.885959) vcan0 025286BA##477147E4F1231E273
(1718680149.086710) vcan0 1324FE4D##52E66295C9AFAF836
(1718680149.287253) vcan0 468#D044FA413AB8F357
(1718680149.487648) vcan0 472##5D44B0C6D87B8B920
(1718680149.687839) vcan0 19D##74271221087917709
(1718680149.888220) vcan0 5E6##6DB4DF406ED58373D
(1718680150.088710) vcan0 0A6B2C43#58CF323E684C6D7C
(1718680150.289389) vcan0 0FF8684F##50885AC7A6A95466D
(1718680150.489755) vcan0 0A2A9980#7CC6286120B7FF00
(1718680150.690913) vcan0 1D522CAB#BAB1F837D5B7BC5E
(1718680150.891317) vcan0 19F2F68A##40F70B036799F9E1A
(1718680151.093518) vcan0 03BCBBE3#R8
(1718680151.293998) vcan0 0B7AC943#72149104AB2A632F
(1718680151.498911) vcan0 0B85624D#99839A6C3F116359
(1718680151.699187) vcan0 2F1#A75DD0555719F85D
(1718680151.900044) vcan0 2AF#C1AE3E4B49AA104D
(1718680152.100248) vcan0 0C67753E##76A61104EFC13F777
(1718680152.304216) vcan0 06091324#D1CBB356FC421714
(1718680152.505022) vcan0 0D643BE1##775E2B52EACEC1F23
(1718680152.705522) vcan0 276#976F391E45A59421
(1718680152.906404) vcan0 02CA8409#R8
(1718680153.108691) vcan0 38A##5229C2A71E7744024
(1718680153.310506) vcan0 06FAF9C9##63E8E3802BB612543
(1718680153.511314) vcan0 500#R8
(1718680153.711818) vcan0 56E##7A46C162A27549863
(1718680153.914025) vcan0 00CA3876##42397AF77428A4B64
(1718680154.114389) vcan0 06657998##5EE766B071B6C4F3F
(1718680154.314858) vcan0 05A4E685##76111E460C8B7FC45
(1718680154.515882) vcan0 152##7AB42C45DE450BF76
(1718680154.716130) vcan0 6CD#R8
(1718680154.916570) vcan0 40A##5123DF31A0FB5612D
(1718680155.116871) vcan0 116##6B70D815F48438E64
(1718680155.317566) vcan0 09977A5B#6F9726481837BF6D
(1718680155.517971) vcan0 1FD62E92#5AC10A5228279018
(1718680155.720571) vcan0 048##64493DF57395CAF76
(1718680155.922237) vcan0 18C3A4A5#0214AC3C5B898A47
(1718680156.124855) vcan0 1A7056AD##53FDA493ED3BA0D5A
(1718680156.325525) vcan0 1949A00B##62A96DB31110E497F
(1718680156.526146) vcan0 0CCED33C#20C3AA2C1F853161
(1718680156.726625) vcan0 0D7##467C8BF45D7D26701
(1718680156.928580) vcan0 0DE65FD6##4EF09276F04FE2420
(1718680157.129115) vcan0 349#2D25B5389236F833
(1718680157.332242) vcan0 1094B871#CC92A72A5E22C319
(1718680157.532444) vcan0 6CE##5B9AB4D610DE3F733
(1718680157.732793) vcan0 1F9785F9##6E09D050EF632236B
(1718680157.933338) vcan0 40A#08416C6A191A636F
(1718680158.133872) vcan0 428##5389F94509823A804
(1718680158.334241) vcan0 79F#70F60F0633200639
(1718680158.534483) vcan0 1537005F#371E2B59DD55F771
(1718680158.735005) vcan0 11E04364#6F8CEF253ACF1051
(1718680158.935446) vcan0 10971F3B#99F1D36AEB58CD6B
(1718680159.136474) vcan0 0C219D52#F83BC51F85C3AE39
(1718680159.336696) vcan0 0DCAD9D8##67BF6D1244F499A64
(1718680159.537937) vcan0 783##46863FD5328155C7A
(1718680159.738321) vcan0 2A0#C138047FAC109849
(1718680159.938728) vcan0 05142F31##7DF309E02B431215F
(1718680160.139408) vcan0 716#9187185139FBB330
(1718680160.339822) vcan0 17081401##674CAC401508E1E10
(1718680160.540090) vcan0 40D#R8
(1718680160.741179) vcan0 1BB12334##7CBBC3839AB7C7324
(1718680160.941514) vcan0 1E0AB346#FAC50D09EF0A2837
(1718680161.142108) vcan0 163##61820843176269E13
(1718680161.342602) vcan0 108858D9##42237365D4396833C
(1718680161.543008) vcan0 001##6F7C7A41B9AB7E72F
(1718680161.743542) vcan0 0CBD4F89##5D4B29B6092494729
(1718680161.946860) vcan0 548##6E3D76539C696642B
(1718680162.149628) vcan0 1551BF1F#0C90EE2AB492B307
(1718680162.350588) vcan0 04274CD7##45F0F272C60DF7E1A
(1718680162.551259) vcan0 55A##750EAA651E8EA7A2F
(1718680162.751528) vcan0 032B0A68#R8
(1718680162.953287) vcan0 004F4880#03C160504BEB4F69
(1718680163.153684) vcan0 0C0588FB#E5A237199867C13B
(1718680163.354061) vcan0 5B9#2BB108650E3C883C
(1718680163.554386) vcan0 1E6E890E#D4D2EC67560C2D2B
(1718680163.754777) vcan0 12DB62E1#0B9FE032802AC324
(1718680163.956028) vcan0 66A#R8
(1718680164.156265) vcan0 431#BE9AAF6881827C26
(1718680164.357361) vcan0 0BC8AC1C#R8
(1718680164.557573) vcan0 645#R8
(1718680164.758635) vcan0 00A#B60CFD07C4CF824F
(1718680164.958933) vcan0 5E1#D20B0B0CC5185620
(1718680165.159096) vcan0 13F7DEA7##71C25834B1C8F345F
(1718680165.360911) vcan0 427#9CB9F70340F1D57D
(1718680165.561381) vcan0 0339C37D#17A10A3756F6A771
(1718680165.762482) vcan0 3D5##7D778241847B63668
(1718680165.965168) vcan0 619##42118FE2F8EDC9A17
(1718680166.165701) vcan0 01156546##7AC81D6639F8BF853
(1718680166.365944) vcan0 0BD38E62#645B7B23159B866F
(1718680166.566439) vcan0 0F866736##4DAB3DC0F32934D64
(1718680166.767179) vcan0 1B5FD8F6#R8
(1718680166.967761) vcan0 0779DBEA#R8
(1718680167.170476) vcan0 1BD#0506D7281657D65E
(1718680167.370879) vcan0 6DC##45E0D0D47843D6F4A
(1718680167.571376) vcan0 57F##5131A0A625539B270
(1718680167.772044) vcan0 3BF##5F4C4AA4417E08403
(1718680167.972596) vcan0 08262058#2C7B0B7364768D0A
(1718680168.173203) vcan0 02E82F06##79609DB6E6CCD2A3B
(1718680168.374015) vcan0 125D2BE4#R8
(1718680168.574553) vcan0 578##7C9B43A6F36A78A04
(1718680168.776576) vcan0 1811BACE#4DFE6063C73CC26B
(1718680168.976915) vcan0 0A6E0BAB##64C7A3136A1DE866C
(1718680169.177188) vcan0 45F##6F617395DF0BB9979
(1718680169.377448) vcan0 4EA##7079C1E7D3F5AD00F
(1718680169.577887) vcan0 102A1733##4A3D05D1AD284B621
(1718680169.780288) vcan0 239##63E52E15C374E5A51
(1718680169.980517) vcan0 025DA710#R8
(1718680170.182232) vcan0 01B#22B5F739BD5BD73C
(1718680170.382523) vcan0 1D58B36F#85989928949CBF69
(1718680170.583280) vcan0 2D1##6357B465644F03F69
(1718680170.783886) vcan0 32B#35ACD9624ED72255
(1718680170.984536) vcan0 03C##58D31F364596D6D5F
(1718680171.184852) vcan0 230#2BF22301AAA53443
(1718680171.386086) vcan0 1E054469#E1F38E1486E21F44
(1718680171.587058) vcan0 732##671F08C7902606470
(1718680171.787476) vcan0 1384A593#C0BB3B2D37F24727
(1718680171.989162) vcan0 445##4CB8E07111C18A418
(1718680172.191118) vcan0 201##56108E401460EA72B
(1718680172.391530) vcan0 496#94E5C900420D3170
(1718680172.592102) vcan0 721##49B7A9E4F425CD814
(1718680172.792830) vcan0 10C26CC6#EC010D58BAF5976D
(1718680172.993975) vcan0 5CD#40D8B731AA9C2A4F
(1718680173.194481) vcan0 0B1#ACFC8E3F4D6C2621
(1718680173.398850) vcan0 0CCAB86C#845E6E4847C7A62F
(1718680173.599603) vcan0 1975ED50#64DF4A48C7734077
(1718680173.800045) vcan0 0A2EE7C5#0D82E7227D94915B
(1718680174.002300) vcan0 03B167A1##6C0A1C24B2D99A273
(1718680174.202733) vcan0 45B##470F57A0813987C6E
(1718680174.403038) vcan0 75C##4CD8D145C523AEB1A
(1718680174.604927) vcan0 60D##6FCD6156A2ACAB457
(1718680174.805253) vcan0 09A4D3A8##77736DB78049DDA17
(1718680175.006258) vcan0 014994FC#4B648147C6980F59
(1718680175.206536) vcan0 3AF#8E0C50509D79835B
(1718680175.407075) vcan0 69B#1A0E1537CFC7E708
(1718680175.607756) vcan0 02D7AFDA#R8
(1718680175.808497) vcan0 66D##5130DD40E58555C0A
(1718680176.009900) vcan0 0AE89AE0#AA8F4725F33AB132
(1718680176.210933) vcan0 6A6##71D05660AAD2FC631
(1718680176.413724) vcan0 395##7B1CCA04963C6714F
(1718680176.614053) vcan0 112230FC#2A5F8128DD524A5F
(1718680176.814739) vcan0 3B8#7ACCCD3A20A0E97A
(1718680177.015183) vcan0 11E2DA94##4F067D10390F0F102
(1718680177.231768) vcan0 005BC8ED##790654923A556F312
(1718680177.432364) vcan0 2A3##6FDAB4F1D236DEE6A
(1718680177.632711) vcan0 02973BA7##417A89F1D710EBB15
(1718680177.833449) vcan0 0805AD34#1E3E81479BDCF60A
(1718680178.034056) vcan0 11220ACF#FFA2685A5AB9D16F
(1718680178.234503) vcan0 229#370C1C4F78B03243
(1718680178.441365) vcan0 09E9D8B1#98501C3E3468C467
(1718680178.642171) vcan0 088##5C558B66AB53D8770
(1718680178.842689) vcan0 0DFFBE55#5A947A03CFA0AA47
(1718680179.043327) vcan0 057#R8
(1718680179.243619) vcan0 60A##7ED4CDE724B1E5635
(1718680179.444059) vcan0 30B##7E6FA4C40084C8523
(1718680179.644514) vcan0 1AB59DE5##662055713A7D1C56D
(1718680179.844890) vcan0 19A##71F82F830EF0D5B19
(1718680180.045239) vcan0 0F14D2B7##624761F01919D2968
(1718680180.246171) vcan0 6E9#46DBB058B50C4C73
(1718680180.447273) vcan0 7A0##785ADF63A36BEF239
(1718680180.647754) vcan0 0D8FBB78##5B1FC1517F52B5760
(1718680180.848024) vcan0 19E##4404AAD15C0D40636
(1718680181.048574) vcan0 527##6C8208C59856AD50F
(1718680181.250035) vcan0 62B#2C3C9B7D1B834F0E
(1718680181.453555) vcan0 0E93BE4B#0A91AA271022B33B
(1718680181.654522) vcan0 72E##4A2BFDC23421CAB4E
(1718680181.854718) vcan0 1C8D9AE8##5F828F7415563750E
(1718680182.055097) vcan0 1CEDD67D#8B21684880BAAE55
(1718680182.255393) vcan0 1F7E1E3D#76E6053677034628
(1718680182.456166) vcan0 0BB330B6##637D84C5E853CC62D
(1718680182.656529) vcan0 17D8F900#R8
(1718680182.856934) vcan0 1B36E336##605DCAC20F0561274
(1718680183.057400) vcan0 08576D0F#0079C52F84327307
(1718680183.258293) vcan0 0A2##7C64E1E56554AC105
(1718680183.458750) vcan0 181577BE##6ABAD361414DEE828
(1718680183.658940) vcan0 1C9ECF36##69498977E30E0807F
(1718680183.859328) vcan0 149D7F0A##4A7E3C6274F558F25
(1718680184.059638) vcan0 0613BBDF#D49155539E25FE21
(1718680184.259912) vcan0 10F138DF##7887E5B340AD4A862
(1718680184.461275) vcan0 15085A8D#FA2ABB5697BDF235
(1718680184.661863) vcan0 0680A3FA#R8
(1718680184.862244) vcan0 13843EE1#R8
(1718680185.062886) vcan0 3DB#3C8E3B53DB049D40
(1718680185.263088) vcan0 6D0##40CE51D4085F03441
(1718680185.463874) vcan0 07E4C8B3##6D445C4669C55C106
(1718680185.664058) vcan0 7A9##43A7BBF287139E52B
(1718680185.864641) vcan0 1C3#7B0D8E0E9D2C3317
(1718680186.065041) vcan0 075#34EA254DED1B834F
(1718680186.265405) vcan0 24F#C857045E0DB9EC45
(1718680186.465906) vcan0 1246DDF9#35693F70D1CFA949
(1718680186.669830) vcan0 771#ACD4460AE614D81F
(1718680186.870110) vcan0 0A64B9B8#6C050D611CC4BE1B
(1718680187.070206) vcan0 340#B8198022FE064220
(1718680187.270640) vcan0 0B3F94F3#7040274C7133F64C
(1718680187.473473) vcan0 5EB##50F60296406E37D5A
(1718680187.674065) vcan0 114F4A43#F4FE002AD162C82B
(1718680187.874778) vcan0 080556BC##4DE1BB571C43DEB59
(1718680188.077451) vcan0 01F48513#950D95238A460C15
(1718680188.278204) vcan0 241#705BE434C59ABD3A
(1718680188.480651) vcan0 0DC##6E25E7C56661E8A2A
(1718680188.680990) vcan0 18FC789A#R8
(1718680188.881210) vcan0 16F365D4#7802A42C439C966C
(1718680189.083902) vcan0 287#4A7F1447213AA731
(1718680189.284280) vcan0 63E##6F29C6F5D5DD1F77D
(1718680189.485119) vcan0 0D0##6210FE357B0096773
(1718680189.685362) vcan0 1B781CB6##43A50730867BA8856
(1718680189.885778) vcan0 3AA#R8
(1718680190.086133) vcan0 07C2B40E##558B91E4CA4B80B31
(1718680190.286603) vcan0 16EADEBC#AA87B910363AFB24
(1718680190.487574) vcan0 1D5D8A22#7AD6911151F8861F
(1718680190.687791) vcan0 18A655C4#72322E5174994710
(1718680190.888428) vcan0 764##4D16A3F0EFCA8D642
(1718680191.089227) vcan0 1F3#ACB23D3617C6DB2E
(1718680191.289571) vcan0 1EB102E6#7E806405A195EE0A
(1718680191.492197) vcan0 16AAD5AA#9330832C18BB514F
(1718680191.692820) vcan0 18A1E9EB#R8
(1718680191.893125) vcan0 366#98F02704390D6B3D
(1718680192.093862) vcan0 15B9C712#8A05F25C32729F1C
(1718680192.294148) vcan0 7FC##5A60BE72CD8F01B38
(1718680192.494745) vcan0 678#D599F27A948F805A
(1718680192.694977) vcan0 11304C81##6AB555C091487E302
(1718680192.895653) vcan0 629#B61CD20DF9FDE96B
(1718680193.095948) vcan0 1A554D49##411B93B3B8C35D923
(1718680193.296682) vcan0 1B992CCD#EEEB0503DDFF8342
(1718680193.497869) vcan0 072DDC87##4160DEF7FBCAD241B
(1718680193.698420) vcan0 1CE112A0#R8
(1718680193.898592) vcan0 395#R8
(1718680194.098909) vcan0 1E564B1D#90E13F4278921A41
(1718680194.299332) vcan0 0B9C373B##78D19FE4307E7675F
(1718680194.499776) vcan0 643#00E5514B37B9C87F
(1718680194.699987) vcan0 611#C4EEA123C1BA1C3F
(1718680194.900798) vcan0 2B2##79EBAA00111F3D60E
(1718680195.101781) vcan0 018FC7B4#R8
(1718680195.302054) vcan0 0BD#431B0556F0247269
(1718680195.502843) vcan0 48B##4EC763151608E3C66
(1718680195.703166) vcan0 1371587C#D820572748AF4547
(1718680195.903759) vcan0 0B553A65##54F96AD261B9D6A39
(1718680196.104068) vcan0 34F#5356333935F44A49
(1718680196.304473) vcan0 517#F6AE67083EE4B33A
(1718680196.505553) vcan0 0A086995#4FD78A4903D75231
(1718680196.705908) vcan0 1386781D#D631107C9E0B096A
(1718680196.906205) vcan0 519##68E307B532D25B11B
(1718680197.106517) vcan0 77B#8DB3ED014D313D43
(1718680197.309342) vcan0 0944D465##595E0820AAF8F2B17
(1718680197.512955) vcan0 113076E4##6CA2C9650737FBF51
(1718680197.713191) vcan0 09C9831D##4A8730A1B930BBD1B
(1718680197.913558) vcan0 29F#D1EF7056FEE71B6A
(1718680198.113842) vcan0 721#01BF6E1B7DBD1239
(1718680198.314428) vcan0 0D7##71BC91B231978C868
(1718680198.515638) vcan0 1AA#469D790494571255
(1718680198.716224) vcan0 066750D3#E2884F181CA16153
(1718680198.916979) vcan0 177#R8
(1718680199.117358) vcan0 596#R8
(1718680199.317856) vcan0 1110271F##423DEEF12E8A88B2B
(1718680199.520956) vcan0 5F4##7E690A715F2D5FC01
(1718680199.721125) vcan0 11164FE7#70930F3B54D4DE1C
(1718680199.921418) vcan0 48B##76D4CA705AE7E2932
(1718680200.121632) vcan0 0A20E9B3#42D63B075AF70570
(1718680200.322498) vcan0 724##577986743BE5F3440
(1718680200.523170) vcan0 142#R8
(1718680200.724157) vcan0 739#R8
(1718680200.924565) vcan0 1AA#R8
(1718680201.125170) vcan0 0F38415A##7098E0F22B4BC4013
(1718680201.325578) vcan0 1D1F2179#08911F30FFD1E368
(1718680201.525787) vcan0 15C6DD75#AD500D1B3AD40C10
(1718680201.725997) vcan0 6EF#95CB1200AE017050
(1718680201.926458) vcan0 40C#6D61A410B04E3204
(1718680202.127545) vcan0 52F##7A8F7921A2754875A
(1718680202.328504) vcan0 32F#B35B8C08C0AA2F7B
(1718680202.528876) vcan0 427##6D762421B79F48D52
(1718680202.729222) vcan0 1D51F0E1#2DB1CE65C2DEA371
(1718680202.930291) vcan0 236##6C1B0875A5F90BB55
(1718680203.131203) vcan0 1595016E##69A64C865D4E69C0B
(1718680203.331429) vcan0 05DB302F#R8
(1718680203.533010) vcan0 0CB149EF##621FDE45D89C1C41A
(1718680203.733148) vcan0 4C9##7B0154C75867B6F31
(1718680203.933649) vcan0 1DD87163#R8
(1718680204.139323) vcan0 11E##64C29D63B0BCB4A31
(1718680204.339579) vcan0 01A4DA79##7CDA9EE225A8CA41F
(1718680204.540949) vcan0 1D765A8E##7B91C60755B3C4803
(1718680204.741540) vcan0 153#R8
(1718680204.941891) vcan0 3B1##4CB329C64BD45596A
(1718680205.142449) vcan0 02812FED#47071E05BF947359
(1718680205.342800) vcan0 4F7##54610E30AAF8C975B
(1718680205.544397) vcan0 1782368D##682C1DF44E50B3858
(1718680205.744824) vcan0 00B5EACE##6F1D68209AB399704
(1718680205.945217) vcan0 0BE#05C63B24F7E1ED59
(1718680206.145381) vcan0 199BE2BE#521E365D4937F31C
(1718680206.345769) vcan0 181##4A3BBDC279415C835
(1718680206.546067) vcan0 0C78EE6F##4525B2120D4A2B02E
(1718680206.746509) vcan0 299#R8
(1718680206.946747) vcan0 7D9#C2CF8A65EB0DEC17
(1718680207.147203) vcan0 144##5D1192470123EED49
(1718680207.347382) vcan0 19A6F0C2##4BD77844E5B417B4D
(1718680207.547800) vcan0 5C2#52236927CD4C0050
(1718680207.748081) vcan0 1A5#1784F36C92842001
(1718680207.948778) vcan0 7BA##5279AE83659D0C747
(1718680208.149139) vcan0 1709F579#2D737876854C4370
(1718680208.350479) vcan0 2C1##4988F367AA2D7F21B
(1718680208.550725) vcan0 75A##68EE5DE3301712D5C
(1718680208.751233) vcan0 75F##713AF1A26B16C4C35
(1718680208.951752) vcan0 149F26D0#0CAEC702A161C243
(1718680209.152063) vcan0 15F##46FAEC2131285BB73
(1718680209.353009) vcan0 286#A509DC742A968A1F
(1718680209.553383) vcan0 3CC#846652676AA0CF36
(1718680209.753717) vcan0 1DCAD9B1#EFEC122757F1177F
(1718680209.954151) vcan0 487##4F9C80A1B0D770B6E
(1718680210.154911) vcan0 0EE9AE87#0EE8384A80CC360B
(1718680210.355404) vcan0 721##531398340079E9610
(1718680210.557172) vcan0 034AE73E#A9FF58548322524C
(1718680210.762785) vcan0 081BAE18#R8
(1718680210.964122) vcan0 13A##7CB61D63BDE52587E
(1718680211.164326) vcan0 04F##548F327354BEE7C63
(1718680211.365275) vcan0 1C3AE038#A2DF946273265B5D
(1718680211.566131) vcan0 1D9FA89C##7809D664BA1388F7E
(1718680211.766379) vcan0 159F858E##42105C6090A05763F
(1718680211.967156) vcan0 0A493E52##711A30C50A0DAE56A
(1718680212.167453) vcan0 2BA#23FD37372DDE0F7B
(1718680212.367804) vcan0 4B9##4CEA95B1770315375
(1718680212.568258) vcan0 13320B9A##44F84AB73FAAADD0C
(1718680212.768741) vcan0 08D37797#45995A70EA754E77
(1718680212.969143) vcan0 12EF78E8##75E9CA9548FB49202
(1718680213.170293) vcan0 1DE#30ED2101A778181D
(1718680213.370860) vcan0 0AE7F251#B17D8E5C1CDCA23B
(1718680213.571418) vcan0 0C9B20C3##4BDB688263456C562
(1718680213.772186) vcan0 1DC0B3E0#R8
(1718680213.973579) vcan0 1530DE30#R8
(1718680214.174422) vcan0 20F##68759130EB3BDBD3E
(1718680214.374808) vcan0 1E6DF2CC##59E330C3676996274
(1718680214.575627) vcan0 7FC#054EF576388DEC21
(1718680214.775947) vcan0 335##6E005053F47C97560
(1718680214.976529) vcan0 391##564A5181C2A5E3058
(1718680215.178332) vcan0 421#5EB4F53AD2672F19
(1718680215.378576) vcan0 18CAE8BF#227CB1769B686875
(1718680215.578949) vcan0 0986C1E2##728179E76B9B05E56
(1718680215.779293) vcan0 0AF##46D6E1C1599CD5B7F
(1718680215.983204) vcan0 0B28A20B##60F67BE7330CF7C54
(1718680216.183953) vcan0 0AB3B515##5685C6976E17BA400
(1718680216.384351) vcan0 248##629451A61D11DCA65
(1718680216.585480) vcan0 28D##6FB7BFA3D2E8A3019
(1718680216.786083) vcan0 059##700F25F32AF563660
(1718680216.986550) vcan0 622#R8
(1718680217.187064) vcan0 0C3CD672#C1901576F7BB9F02
(1718680217.388698) vcan0 0B31FF2E#9089FB019DAA0D54
(1718680217.588944) vcan0 15B9F09F#R8
(1718680217.789291) vcan0 635#228FDD2CFF953843
(1718680217.989606) vcan0 44B##7D0B30229581E6425
(1718680218.190306) vcan0 7CB#R8
(1718680218.390573) vcan0 287#355C352B3C79A871
(1718680218.590835) vcan0 00D41B80#44595F11AE389E0C
(1718680218.791070) vcan0 206##4A5F43D0F1439FF1D
(1718680218.991351) vcan0 635#B1E30C726E8A0169
(1718680219.192820) vcan0 1A975D7E#AE9D3A1589146167
(1718680219.393484) vcan0 02182CD0##488AA992A316CED0D
(1718680219.593817) vcan0 139C5E58##6898A5133F3BF3A5B
(1718680219.794482) vcan0 11E63310##479C5392647EE861A
(1718680219.997381) vcan0 116F21AF##584672F0C40D6E07C
(1718680220.197658) vcan0 1D8EC0C8##7EF0E7F09212F541F
(1718680220.398969) vcan0 394##73568533D0394AA37
(1718680220.601706) vcan0 3E6##6711EAC209FF0E930
(1718680220.802314) vcan0 41F#28054B1818DD8203
(1718680221.002629) vcan0 7B1#494970110BEA0E48
(1718680221.203172) vcan0 04C1D3D3#FFA949232D9C1A51
(1718680221.404245) vcan0 09836F78##4748AA16B7AD48219
(1718680221.604522) vcan0 17D0F1F8##5BAAA631656CE356D
(1718680221.804942) vcan0 1FE2B9A9#78FD890C8F5D633A
(1718680222.005482) vcan0 5AD##792F10D72083F9662
(1718680222.205965) vcan0 003#A72F8013F85A3543
(1718680222.406928) vcan0 0BCB34CF##41038B84613B59F40
(1718680222.607341) vcan0 15A#1E9FAE088AF23005
(1718680222.807579) vcan0 0BF8491D#B78E4B56105C9253
(1718680223.009940) vcan0 12B##58A30156DBD496E10
(1718680223.210443) vcan0 344#1418A47DE5BD1D4F
(1718680223.412243) vcan0 58C##7741B81092C52FB5B
(1718680223.612557) vcan0 1B8F0D07#R8
(1718680223.812764) vcan0 0DB##6C6877E102DE9E956
(1718680224.013049) vcan0 7D6##6409E89172BDA8C6C
(1718680224.213545) vcan0 55F#B5CCBD715D96494C
(1718680224.413791) vcan0 36C#R8
(1718680224.614404) vcan0 0CF122F7##5D0881A52BB7FB443
(1718680224.814758) vcan0 0E4#R8
(1718680225.014944) vcan0 115#56E5C00FA931F82D
(1718680225.215286) vcan0 68A#R8
(1718680225.415543) vcan0 0BBFE63D#546C157D0F2D411E
(1718680225.616524) vcan0 149F0A94##43A07CE0A44E75512
(1718680225.817193) vcan0 1C8BD3EF##4A17D9F5E70CE0701
(1718680226.017469) vcan0 1E7B700F##6820DB442F3A38B4E
(1718680226.217594) vcan0 652##5AE2340124291D61B
(1718680226.418028) vcan0 14F##56C249C4FA6ED793E
(1718680226.618167) vcan0 1C2#501F726C80204859
(1718680226.818302) vcan0 5C7#A6A3737FB1B7134E
(1718680227.019169) vcan0 7FA#C1E4546C170A6A56
(1718680227.219297) vcan0 1722EBFB##75BF1BF688262FF45
(1718680227.419999) vcan0 075F6EFD##6F230074746EF4338
(1718680227.620484) vcan0 675#3993CF0612724751
(1718680227.820745) vcan0 190FB6E8##555031E6DFE0B1703
(1718680228.021109) vcan0 1CBA27C1##5A4F990419BD2877F
(1718680228.221424) vcan0 0F4#1BF3CF58D0B1C649
(1718680228.421947) vcan0 184396C1##68269DA17BFFA2909
(1718680228.622542) vcan0 643#R8
(1718680228.822796) vcan0 632##7CD23F42B29FA006F
(1718680229.024002) vcan0 12FB54C0##770E944273B448E55
(1718680229.224284) vcan0 0E147CA9#4EB6D526FC67401B
(1718680229.424997) vcan0 13F3B9A3#FA73571EC84B4605
(1718680229.625192) vcan0 59F#631ECE04E812C56C
(1718680229.825451) vcan0 1D9E117E##4B9C48B364F1DA223
(1718680230.026141) vcan0 63B#0E18CC2CFC4EAE0A
(1718680230.226624) vcan0 4E5##74710A370BCB6E74D
(1718680230.426984) vcan0 414#R8
(1718680230.627158) vcan0 256#83BCF539091C490C
(1718680230.828498) vcan0 00CB72D1##706848927914A6659
(1718680231.029287) vcan0 000#5996AC5ED80D6D45
(1718680231.229459) vcan0 037AB4BD##7C120323233ECB433
(1718680231.430516) vcan0 08BDE57A##6820957577B6EFA76
(1718680231.630696) vcan0 04232190#77BDA8013390B909
(1718680231.831609) vcan0 5BE##5EF46A1578E513765
(1718680232.032189) vcan0 1489F7D5##4D5C99E49A78A751E
(1718680232.232649) vcan0 03948658##6B1A6BE2A2BA9F90A
(1718680232.433906) vcan0 12482AB7#BCF35F649D251F59
(1718680232.635671) vcan0 030C8A15##576338C1E5788F23D
(1718680232.836635) vcan0 437##48A74A7710E05A067
(1718680233.036976) vcan0 08FE7E0C#89739A5E664DA070
(1718680233.237387) vcan0 101#R8
(1718680233.438313) vcan0 11FB2488##7A02FDC4292007261
(1718680233.638700) vcan0 176##73A8BE77F89AE3C5F
(1718680233.838970) vcan0 1EB##7B457366AF8786F74
(1718680234.039173) vcan0 370##4959E8E4D597F1715
(1718680234.239631) vcan0 20B##5B0070A5358142A38
(1718680234.440609) vcan0 43A##46619CA1FF35F5576
(1718680234.641434) vcan0 4F0##559ADF566E399D15A
(1718680234.841683) vcan0 014F8AF2#F5777638B0BC3631
(1718680235.041858) vcan0 1B52A796##643BDA812D9CBCF19
(1718680235.242311) vcan0 07D#627A0C79DA20DD17
(1718680235.442487) vcan0 217#D2994C0C0AD7243A
(1718680235.642824) vcan0 19DB3868##563563C4F0DF37B43
(1718680235.844935) vcan0 02465E14##46607A67BB630CF02
(1718680236.045508) vcan0 0CC##7A990247995D4A774
(1718680236.245902) vcan0 603#R8
(1718680236.446279) vcan0 07EFE66D#5E28B3297078B474
(1718680236.646459) vcan0 1C5BE5A1##44944840E0F2F100B
(1718680236.846813) vcan0 6AC##7EA4FED2286A8220C
(1718680237.047098) vcan0 0F39E9BC##4907F47464AAEAC1C
(1718680237.249002) vcan0 5F3#58A12860982C0B4F
(1718680237.449301) vcan0 1BCEA8BE##54E5DDA51560EC21E
(1718680237.649436) vcan0 5F7##6EBE2691347771311
(1718680237.850369) vcan0 163##6F4E28F09F0F4826C
(1718680238.050737) vcan0 352#606D3761D4C5156E
(1718680238.251091) vcan0 0FBBB1AA##4E3F42579111F8B3E
(1718680238.452766) vcan0 4CD##597C7AD4A19012062
(1718680238.653001) vcan0 727##663AFCC7EAE506254
(1718680238.853726) vcan0 1EF550BB##6467D6D232251435E
(1718680239.053980) vcan0 1547DA94#R8
(1718680239.254395) vcan0 263#4B3A164386F45F6B
(1718680239.454757) vcan0 53F##576E9E25797CB255E
(1718680239.655019) vcan0 6D7##46B913B4C8519886F
(1718680239.855408) vcan0 0561864E#9738132ED7782220
(1718680240.055705) vcan0 02E#R8
(1718680240.256193) vcan0 153##5544A240171642F30
(1718680240.456477) vcan0 0491C79B##793B5720E8873C81A
(1718680240.656628) vcan0 0B78150C##78C36CB4CBB6A205A
(1718680240.856784) vcan0 0FE170D7##7425F804536EB390F
(1718680241.057045) vcan0 1D6348B8##5CDB65F6DA9B6705C
(1718680241.257263) vcan0 199B4838##72ED0F84B10A8537F
(1718680241.462230) vcan0 0C5##5E720761FA2997160
(1718680241.662453) vcan0 2D7#4893330D4A50837C
(1718680241.862957) vcan0 0E57DD9D##6BBB4B22C3A3ECC02
(1718680242.063142) vcan0 24E#R8
(1718680242.263700) vcan0 04F##623B2E326CAD68462
(1718680242.465575) vcan0 165##500C2BE713DE7C856
(1718680242.665803) vcan0 1F1E78CD#R8
(1718680242.866134) vcan0 1F326E15#BDA1985F8B8FB617
(1718680243.066992) vcan0 2A5##62E292878CE7F0B6C
(1718680243.267321) vcan0 476#R8
(1718680243.468678) vcan0 154184D3##4E15F5B464B3F9D46
(1718680243.669004) vcan0 1A4##4B38660137C6E0417
(1718680243.869307) vcan0 1A4438D6##44645897919539148
(1718680244.069535) vcan0 0B480746##6573A5A1F58A46F30
(1718680244.270020) vcan0 1293D83D##4059EB41018412063
(1718680244.470271) vcan0 7C3##4A4D0D67A2DBD044B
(1718680244.670522) vcan0 1D2#FB3C1037E45F2310
(1718680244.870734) vcan0 514#8C81B2535C500E0C
(1718680245.070975) vcan0 1A0DE16D##5A78FAB5209814705
(1718680245.271416) vcan0 060C165A#86EF4B1C04ED4D4C
(1718680245.471715) vcan0 4CC#1E40DF146B99F846
(1718680245.671985) vcan0 14397A75##4C43D687726BC834B
(1718680245.872332) vcan0 3C9##43FFDA32E05999358
(1718680246.072549) vcan0 5E3#32569823F41DC667
(1718680246.272671) vcan0 1AA8932D#D97DE977FD7DD414
(1718680246.475980) vcan0 0B9BFF65#59CEE2202932282F
(1718680246.677655) vcan0 601##432B36F34E4D3A763
(1718680246.877991) vcan0 10BBA2B8##6E8C0F52F8CC3EA79
(1718680247.078353) vcan0 04D50106#F75CE3409813AE67
(1718680247.278964) vcan0 184B9ABB##6BECF31332ECEDB7F
(1718680247.479767) vcan0 01D5CCFD#33676F581192D238
(1718680247.680090) vcan0 565#06B098209562CA27
(1718680247.880421) vcan0 5DF##493E09E3CD4F0F750
(1718680248.080705) vcan0 6EC#FD222000160EC849
(1718680248.280959) vcan0 148FD62F#FAE16F2D4981AA2A
(1718680248.482127) vcan0 2E3#D54495246D50DC6B
(1718680248.682406) vcan0 0578A1CC#05648A53651F491B
(1718680248.882965) vcan0 3C3#93ED241B0DB32C5E
(1718680249.083266) vcan0 139454C6#1E45FF16A19BE273
(1718680249.288586) vcan0 1797F524##637FEAC1BBD624C46
(1718680249.489691) vcan0 184BDECA##49153441747503834
(1718680249.690207) vcan0 68E##55E5E007EA49ADD06
(1718680249.890757) vcan0 058##7ED1B8831A6C53F51
(1718680250.091150) vcan0 161D60C2##613161C3D2587102B
(1718680250.291375) vcan0 218##78AA65946163F5A59
(1718680250.492981) vcan0 017E941D##623F286379CAEF47F
(1718680250.693205) vcan0 0E863742##43E4AD7730EFBAE44
(1718680250.893830) vcan0 075##5CB5DFB0A6A4F3856
(1718680251.094160) vcan0 023FB15D##7B19F700AF5B49D1D
(1718680251.295000) vcan0 0870FE0F##6994F7B24A9749805
(1718680251.495355) vcan0 386#4F3AD856A321B73C
(1718680251.695790) vcan0 062#C8A8C767D7CEB667
(1718680251.895970) vcan0 752##6ED0D11415678FD3B
(1718680252.096469) vcan0 18980011##7F226F23B52CCB264
(1718680252.296810) vcan0 0FC97130##460C76129B9633C4D
(1718680252.497787) vcan0 145D252C#23B37423E4E01D27
(1718680252.701869) vcan0 0DE552D5#DA95BB4474FE4010
(1718680252.902149) vcan0 573#1E73D9154C8F376A
(1718680253.102577) vcan0 56D##6F0B0EE26421D5B6B
(1718680253.302796) vcan0 1B8#19EC11534AC84025
(1718680253.503250) vcan0 1422FA07##6A0403E617A8C774C
(1718680253.703575) vcan0 793#R8
(1718680253.904139) vcan0 1A8C202D##4249515216992470C
(1718680254.104905) vcan0 048A4848#R8
(1718680254.305660) vcan0 18210927#R8
(1718680254.506035) vcan0 0BA08D75##64E7BFD12953F9220
(1718680254.706346) vcan0 43E##4D75CED0BB238F878
(1718680254.906677) vcan0 0F1##5FD00391E012F7A05
(1718680255.107221) vcan0 19D#R8
(1718680255.307810) vcan0 449#7B6EB653F481A169
(1718680255.508044) vcan0 39F##55D14E975D079916C
(1718680255.708429) vcan0 094E87AA##5B295175204E7C52B
(1718680255.908707) vcan0 009##406D38B546D7FC702
(1718680256.109550) vcan0 654##702BF59236178D14B
(1718680256.309841) vcan0 3D9##413B1C9448800186A
(1718680256.510985) vcan0 210##68A2F926FC2A76801
(1718680256.711695) vcan0 306##7D2E44501DE9C217F
(1718680256.912222) vcan0 14FC534D##7D21EC368C5334822
(1718680257.112529) vcan0 1EAC332F#95ADD90ED4A21E03
(1718680257.312807) vcan0 348##6D989E42EAC4B6A29
(1718680257.513521) vcan0 03705CDF#19CB312CD0304F7C
(1718680257.713877) vcan0 0F8B8A1B##431A92048C5256F0C
(1718680257.914459) vcan0 244#4D268776BF0A190D
(1718680258.114769) vcan0 061955D7#81B2810E03006752
(1718680258.317332) vcan0 0FC79754#R8
(1718680258.517746) vcan0 1A4BBBB4#F273850E8E418C2E
(1718680258.718188) vcan0 1D5F2187##463E4AA31BDA9F220
(1718680258.918448) vcan0 008F6E3C##769F55C4A21582027
(1718680259.119161) vcan0 168EC082##6F1886F234E76F94E
(1718680259.319450) vcan0 0B903222#R8
(1718680259.520321) vcan0 260##551FB0552BB986768
(1718680259.720747) vcan0 5D2#R8
(1718680259.921308) vcan0 5A0##54299E34BC82F1355
(1718680260.121917) vcan0 534#56719F0337E09A5F
(1718680260.323980) vcan0 154A55B9##6F5898D008B931876
(1718680260.525773) vcan0 0AEA7F5E#ACEB381D108FD979
(1718680260.726271) vcan0 00A8749D#5E05D3487E8A9307
(1718680260.926727) vcan0 043BA171##7107B804C2533B324
(1718680261.126949) vcan0 661##4E1CB1A0D0A7C342E
(1718680261.327364) vcan0 49F#1FD5DA0D5A695D6F
(1718680261.528510) vcan0 19BE6E61##722997044938BE31A
(1718680261.728749) vcan0 08100A79#CB6B7E7A51AAEF2B
(1718680261.928957) vcan0 5C0##4DC3D082228243413
(1718680262.129895) vcan0 188##738B30D0DFFB46F07
(1718680262.330062) vcan0 15E0B897#7E3F030FE444222C
(1718680262.530485) vcan0 28E#0978D550DABD4770
(1718680262.730657) vcan0 3EA#E4397C1E24551879
(1718680262.931299) vcan0 704##67EBE7568C9421A7A
(1718680263.131605) vcan0 0CE657A1#5DCEFD14FBF83C3A
(1718680263.331975) vcan0 228##64CA32C664CC25072
(1718680263.532191) vcan0 128#74E6840506A57E50
(1718680263.732531) vcan0 1AD#065AEE57D5A85F47
(1718680263.933132) vcan0 184#B9ED81734CAC8F62
(1718680264.134084) vcan0 5C2##4276AD75202857F3C
(1718680264.338507) vcan0 1153A40B#26DA973537522148
(1718680264.538887) vcan0 1E0D98A5##700953B427530C023
(1718680264.739257) vcan0 35D##57029FD5D6052EA3F
(1718680264.939570) vcan0 0429CCBC#AC143B326DCD3D71
(1718680265.139960) vcan0 321#7472BC4194B8D413
(1718680265.341375) vcan0 47A##76961345B12E7C532
(1718680265.542300) vcan0 722##75E93551510BA1143
(1718680265.742531) vcan0 585#133F917F915E5535
(1718680265.942969) vcan0 15291939#C8B0767DA0542B77
(1718680266.143749) vcan0 5C9##71585EB1A24A22A1E
(1718680266.344477) vcan0 685##584F4145EAC46A17D
(1718680266.544951) vcan0 10500931#1914DF6E25297109
(1718680266.745149) vcan0 68D##4B9E1451D20996212
(1718680266.945876) vcan0 187A4322##53280284505B9E24A
(1718680267.146010) vcan0 390#1673F40D29473E5A
(1718680267.346186) vcan0 229##5BAA5930FA7B22B1C
(1718680267.546580) vcan0 683##447075713417DE515
(1718680267.746822) vcan0 45D#651F10347245A863
(1718680267.947235) vcan0 3EA##41E8C496124B63D64
(1718680268.147631) vcan0 1028A038##649DFAE6D6D21856A
(1718680268.348860) vcan0 0AF4C103#8DBAE77CCD790A4B
(1718680268.551095) vcan0 02103ABF#D232ED156A969F4A
(1718680268.751352) vcan0 03E1A5E8##793DDDD24655F395F
(1718680268.951790) vcan0 1471834D#0C12657B74231674
(1718680269.152050) vcan0 154#B5A0FB091C76380E
(1718680269.352403) vcan0 1E0BC01A#8FBBE07193E02964
(1718680269.553535) vcan0 7AD#B79667481FF1A572
(1718680269.753734) vcan0 16167601#8C122B5DAB0E1724
(1718680269.953974) vcan0 519#7888216F293B7A44
(1718680270.154138) vcan0 34A#R8
(1718680270.354584) vcan0 13F7AF26##48DB5EA1744B9575A
(1718680270.557673) vcan0 79A#B8DC6D4E440CE529
(1718680270.758029) vcan0 56D##761821D389F860A5F
(1718680270.958446) vcan0 5F0#326734438C11A666
(1718680271.163341) vcan0 0B9BFDEA#R8
(1718680271.363699) vcan0 16771538##62E7C9244EFAABD02
(1718680271.563964) vcan0 4A6##418E637472AEAAC2C
(1718680271.764690) vcan0 7AC#52405E652321B361
(1718680271.965879) vcan0 5E0##468DA0A3C4699B272
(1718680272.166149) vcan0 720##68BA5971C689EA432
(1718680272.366416) vcan0 7EC##70725AF1116725779
(1718680272.567014) vcan0 439#R8
(1718680272.767371) vcan0 1949864E##4FC58571C0EFE3122
(1718680272.967765) vcan0 00E9D52A##5FDA8EF24D97D4A00
(1718680273.168602) vcan0 716#0368F72CC199604D
(1718680273.369027) vcan0 056##4E4BA132F94ADC24C
(1718680273.569850) vcan0 54C##5DB46753FB05B3720
(1718680273.773566) vcan0 1C0CEC66#18FADB52FB807958
(1718680273.973767) vcan0 71F##411F3D0512E7A752F
(1718680274.174418) vcan0 6B3#R8
(1718680274.374788) vcan0 6A4##48A33203C8998D85A
(1718680274.577288) vcan0 488##76216235B9F6D303D
(1718680274.777626) vcan0 665##76007910A60B2B00F
(1718680274.981182) vcan0 19A4C244##6F45F735CF1C40E2A
(1718680275.181932) vcan0 1BE8A6CF#A120464AFEA35A1A
(1718680275.382218) vcan0 1D221AB9#F924D47287A7B728
(1718680275.582485) vcan0 00A#R8
(1718680275.783207) vcan0 037E875D#R8
(1718680275.983661) vcan0 112A4E37#4824643CCFD9B973
(1718680276.184247) vcan0 17873AAA##76E47EA305D96713F
(1718680276.384564) vcan0 6CE#BD48224FCBDF113A
(1718680276.585234) vcan0 0B95A8B2##4BDA42064A468E319
(1718680276.785465) vcan0 0E66C55E#A20C3E34B7E2733F
(1718680276.985791) vcan0 19B#R8
(1718680277.187278) vcan0 0058ABF4#21FF510862D82A62
(1718680277.387719) vcan0 1D5C19CE#2264B6435279FE0E
(1718680277.588008) vcan0 06A##52153B802C592C060
(1718680277.788492) vcan0 13A29A90#23293220257C4337
(1718680277.988867) vcan0 1E0##7F05B557171FA3D64
(1718680278.189094) vcan0 0AD##41563217E146A6862
(1718680278.389725) vcan0 7B7#CB4CDC2124A6654F
(1718680278.590304) vcan0 709##414C09B1CF7EA2845
(1718680278.790776) vcan0 04EDBF36#R8
(1718680278.991111) vcan0 77C#A02F361D0A41D070
(1718680279.191776) vcan0 2C2##5D0D39051FB72C602
(1718680279.392005) vcan0 4F3##420EF093AB006AF42
(1718680279.592403) vcan0 0B5F4B11##42201ED266689017C
(1718680279.792805) vcan0 437##77AF3695ECA11B204
(1718680279.993565) vcan0 00464045##7EEB717544175DF30
(1718680280.193911) vcan0 003##7396008764C9AAE54
(1718680280.394211) vcan0 1D5C2393#R8
(1718680280.595200) vcan0 001C803B##74851BB08F5FA8A73
(1718680280.797216) vcan0 1A4C2518#R8
(1718680280.998598) vcan0 105B5D11##6FF264B36DE90262D
(1718680281.199010) vcan0 021##4441A2829E1F38F5C
(1718680281.399303) vcan0 07920DBE#R8
(1718680281.599917) vcan0 1559BD9A##489D5930A52652612
(1718680281.800441) vcan0 009C35C2#R8
(1718680282.000927) vcan0 09BB5038#137D995364A45E26
(1718680282.201374) vcan0 1C54CE5B##45A9FE91970D3E269
(1718680282.401794) vcan0 103B0D4B##4BFF37E5D7E15B002
(1718680282.602413) vcan0 2BF#R8
(1718680282.802592) vcan0 0A1#6006E17839CF4873
(1718680283.002979) vcan0 40B#812FFD4C631C6968
(1718680283.203275) vcan0 1791050B#B5818F7A42FF8935
(1718680283.403874) vcan0 01648153#186C387123942576
(1718680283.604639) vcan0 12C#8738841CFFA1F774
(1718680283.808304) vcan0 166DD7E1##57075DA5EFBAAC757
(1718680284.008764) vcan0 12F#79C0775A894F3F07
(1718680284.211110) vcan0 6D6##708629023CFC62541
(1718680284.411677) vcan0 068#R8
(1718680284.613615) vcan0 016BC58A##43B12472C193E1106
(1718680284.814141) vcan0 06D693F1#5B3D9B3B62052A31
(1718680285.014616) vcan0 174#85994F27D0E65A33
(1718680285.215020) vcan0 20D#D0885228274ACC12
(1718680285.415794) vcan0 640##722F5936A1B8FEA40
(1718680285.616274) vcan0 050BB59C##7A4DE29485EEBA913
(1718680285.816869) vcan0 0AC##42DB2CF54EA43A732
(1718680286.017125) vcan0 035#C2398576871DC07E
(1718680286.217333) vcan0 02CC4BFE##7A05BD10454D8A663
(1718680286.417664) vcan0 006C98FC##7B7DDD01433F5DD51
(1718680286.617949) vcan0 73C#04DC380510D5E55E
(1718680286.818313) vcan0 0D8B64D4#371FB27138F3357A
(1718680287.018851) vcan0 45A#5382203B83CA3E78
(1718680287.219049) vcan0 0F7##5E1B5E80B68E6AB70
(1718680287.419341) vcan0 00B8680E##4532A5323B74A3077
(1718680287.621315) vcan0 415#3E68F07503BEA074
(1718680287.821690) vcan0 1AC1C3DF##45896475802904706
(1718680288.021905) vcan0 0D18740F##6368525584B9F6E28
(1718680288.223172) vcan0 1D5E613A##65B74540795342D29
(1718680288.426199) vcan0 392##7CD2763232229A23F
(1718680288.626580) vcan0 220#A5F3E037E2719E76
(1718680288.826747) vcan0 03C9A987##54B584A67BAACD250
(1718680289.026987) vcan0 0A9D829E#71F70248D9C1780E
(1718680289.227596) vcan0 1DF35FAF##4DD7F1903C7961A61
(1718680289.429593) vcan0 635##7C92662676980E373
(1718680289.630147) vcan0 3FF#B41F521C8F75B271
(1718680289.830908) vcan0 03A6940F#R8
(1718680290.031299) vcan0 1F1##469FC71678ECFF971
(1718680290.231834) vcan0 1F52F00F#714198682887947E
(1718680290.432103) vcan0 1BC##5E233674F2BAB9E07
(1718680290.632896) vcan0 353##6056D17160D03F67E
(1718680290.833825) vcan0 1930ECE2##4D499106091AE120E
(1718680291.034265) vcan0 0772C09E##5FB2EF6015B8D0B3D
(1718680291.236359) vcan0 1E484EAF#R8
(1718680291.436617) vcan0 099DAD0F##71E4DB04B610A9C5E
(1718680291.637256) vcan0 188#EFD9955012FBA624
(1718680291.837473) vcan0 192E1B60##53A823B232DD39135
(1718680292.038100) vcan0 61D#R8
(1718680292.238397) vcan0 35D#84D48662736C6A5F
(1718680292.438751) vcan0 02976E58##7051B7D6D56DB0A61
(1718680292.639560) vcan0 200##5B168161E949B0411
(1718680292.840665) vcan0 0CD46B9C##76B15E5346E7BAA4F
(1718680293.041589) vcan0 00956289##6CF85462EAB97521E
(1718680293.242162) vcan0 1EDC5FBF#BD92F942A8E52C06
(1718680293.442621) vcan0 063514F8##7D5B8BE3B3C301B41
(1718680293.645347) vcan0 18EF372E#B201AC2485ACE462
(1718680293.846031) vcan0 0732D636##6F9184F42CBFAAF38
(1718680294.046323) vcan0 0FCC33FE##721D6BA198573D453
(1718680294.246968) vcan0 6D3##7190FD964AD16FB2C
(1718680294.447509) vcan0 19BE2484##71C92A57C1AC3171B
(1718680294.648216) vcan0 7EB##7C55A6A391F330B4E
(1718680294.850153) vcan0 583##6C8183854CAF2D261
(1718680295.050523) vcan0 0FF6D19D##60623EE2290CD703B
(1718680295.251073) vcan0 079A24B8##6157A551E572B1D55
(1718680295.451319) vcan0 00A4930E##72226CD0D7E3F9718
(1718680295.653089) vcan0 443#03B36B6C0A45B02F
(1718680295.853421) vcan0 21D##5B85BAB5C85E5FE63
(1718680296.053774) vcan0 1950EDD4#9FA8167FAF6D5605
(1718680296.254343) vcan0 18810365##7CFA061536A7D052E
(1718680296.455125) vcan0 197#3470D80F63F37D17
(1718680296.656658) vcan0 33A#F3C0EE5200947640
(1718680296.857107) vcan0 308##457BF9315E1B22D49
(1718680297.057302) vcan0 0360E579##55FF2C46123955962
(1718680297.257860) vcan0 563#R8
(1718680297.458308) vcan0 5E6#5802410E214E780A
(1718680297.661972) vcan0 2F8##6D1BBCE0F7929434C
(1718680297.862465) vcan0 03305CA0#R8
(1718680298.063363) vcan0 0A211717##5A8923B126BA15A42
(1718680298.264975) vcan0 052A539B#6B35D10244624837
(1718680298.465248) vcan0 1864F4C2##425157600BA5C5728
(1718680298.666407) vcan0 023B0785##6DEF1B00AF8BBAE06
(1718680298.866861) vcan0 40C#CBD8F0306814E14F
(1718680299.067063) vcan0 323##48962595AAC257653
(1718680299.267907) vcan0 0A281E5A##6254FB91F78346212
(1718680299.468627) vcan0 609##6BDD31F0D31912258
(1718680299.669036) vcan0 665#9D327D1A72B70A61
(1718680299.869981) vcan0 008#B6195318A448F45A
(1718680300.070850) vcan0 18C92EDB##65EA54B0306377971
(1718680300.271357) vcan0 73C#FEF2277848E36F2B
(1718680300.474248) vcan0 3C9#B0F7507B3A652736
(1718680300.674841) vcan0 15AA5A3A#E68A9D09082DD434
(1718680300.875951) vcan0 20C#816136478FF32A0D
(1718680301.076359) vcan0 1456353E#C0844D6535DD7B67
(1718680301.278230) vcan0 75D#A7948648A4553778
(1718680301.478523) vcan0 65D##5489E2B53317CCC52
(1718680301.678933) vcan0 167743A7#R8
(1718680301.879242) vcan0 1C6DA636##4E2F616202C3E2B0F
(1718680302.081516) vcan0 1B67EE92##766A35245EC18D14D
(1718680302.281803) vcan0 64D#F545A50261C1E430
(1718680302.482418) vcan0 09DBA776#R8
(1718680302.682774) vcan0 1B0#A3B51B235878E311
(1718680302.883151) vcan0 24B##7FDCD1A0A74104140
(1718680303.083675) vcan0 445#A58C0D13E1D51E46
(1718680303.284144) vcan0 7DC#7BE9C53AD08A3118
(1718680303.484511) vcan0 05D##4FCC85C2712584779
(1718680303.685113) vcan0 0CAF6C62##7FE701847BC175767
(1718680303.885468) vcan0 09BDB6F3##71DD93B1808A3E633
(1718680304.086492) vcan0 164B8E0D#767B866F1E3BCB31
(1718680304.287066) vcan0 12A2311A#R8
(1718680304.487299) vcan0 0DC98173#3FC9115D0D74C04A
(1718680304.687663) vcan0 101F55E4#R8
(1718680304.888025) vcan0 0BA5336A#7528FF76D37B335B
(1718680305.088535) vcan0 1E5BF171##5E5D37A54B6E2C61C
(1718680305.288760) vcan0 4E4#72FA1D0483F8AA46
(1718680305.489509) vcan0 1C59D38F##58C9B917A415AEA78
(1718680305.690245) vcan0 702#R8
(1718680305.890424) vcan0 0D5#R8
(1718680306.090690) vcan0 0630AB65#8F37BF4502B83D67
(1718680306.291055) vcan0 169E817E#A7550B460A97C21D
(1718680306.491140) vcan0 61D#DE12F678AFC8C548
(1718680306.692854) vcan0 6C3##765AB8C6562CD7166
(1718680306.893247) vcan0 09AAA5D8##5E6C51C2D7F27554E
(1718680307.094074) vcan0 07AE6172##5C0813F4704DBA978
(1718680307.294223) vcan0 71F#5E04F86491C0800E
(1718680307.494610) vcan0 683#12847F093D2A871C
(1718680307.695039) vcan0 3A1#3FE2C4033293972A
(1718680307.895441) vcan0 09D037E7##73C2A5A4807F22048
(1718680308.095834) vcan0 51A#B6BAE61092254162
(1718680308.296461) vcan0 61C##7F5F2B248854FC577
(1718680308.497124) vcan0 0DB#04771A465B852266
(1718680308.697723) vcan0 0D59F8C4#5F60CC5EC192442F
(1718680308.898015) vcan0 03C464BD##45253C53DD86FA85F
(1718680309.098544) vcan0 0744D765#159A2F7C29DD2206
(1718680309.299876) vcan0 455##55B70BA3026D0603C
(1718680309.500268) vcan0 298#R8
(1718680309.701960) vcan0 4E4##4D28FE03290FB2549
(1718680309.902375) vcan0 2C7#164BEB40F4EEF96B
(1718680310.102940) vcan0 21A##44F741C52EF55E10E
(1718680310.303256) vcan0 10E8D4AF##7B1E8253EC2CAAE13
(1718680310.503528) vcan0 403#9A3A5773AD848826
(1718680310.703963) vcan0 4B0#D761AB2C6FA6B359
(1718680310.904399) vcan0 1D65D232#9576141641054039
(1718680311.104679) vcan0 0C2##6816FDF097D44DF10
(1718680311.305343) vcan0 753##50D40055AA698DA3B
(1718680311.506016) vcan0 1AF08B23##69A87D427BDBDB629
(1718680311.706169) vcan0 3EA##7AD1398381D085636
(1718680311.906517) vcan0 16BDFC5E#R8
(1718680312.106935) vcan0 1D5C0D7A#B38E0F46CA4BD935
(1718680312.307703) vcan0 08A##639F28C0F2F335E1C
(1718680312.508001) vcan0 0CE#R8
(1718680312.708251) vcan0 7F1#04747A3737573670
(1718680312.909983) vcan0 411#DDEF102C5F299154
(1718680313.110714) vcan0 13E57778#1DE7477E738C664E
(1718680313.310901) vcan0 2CA##49094BC04FB43B078
(1718680313.511146) vcan0 76F#004E3718892F4720
(1718680313.711628) vcan0 1E46DCB3#537B205613570039
(1718680313.912084) vcan0 05AD6D8C#R8
(1718680314.112404) vcan0 2B2##681BFBD47EB77864B
(1718680314.312651) vcan0 1F383385##422CFBC3BE811B826
(1718680314.513104) vcan0 6FF##5473B497BCB26283D
(1718680314.713330) vcan0 19912264##53EB38E0BD9A98909
(1718680314.914889) vcan0 7CE##7D4ED390256140F5E
(1718680315.115411) vcan0 3D5##7E043567E27242A6B
(1718680315.316210) vcan0 733#3B7B2A24C6E5B949
(1718680315.516374) vcan0 57D#C075DC6A1A037345
(1718680315.717597) vcan0 541#057BF910D332002F
(1718680315.917958) vcan0 227##5BB44B8555C508A42
(1718680316.118232) vcan0 11018003##52877B27F9E3F3770
(1718680316.318506) vcan0 0B412A66##578E9C07996BF037B
(1718680316.518677) vcan0 1BFAD74C#ECD312597321997A
(1718680316.718957) vcan0 176917CC#9A45C365AA2B240F
(1718680316.919220) vcan0 0D5#7011DE58C0030466
(1718680317.119486) vcan0 03BA8730##4DA06772B838EFC27
(1718680317.320249) vcan0 1C7081E0#56C1FC5637252728
(1718680317.520560) vcan0 0CB50612##59375B16A2ED5AA3D
(1718680317.720844) vcan0 0A63ECBB#CD14E22D7C284948
(1718680317.921572) vcan0 645##412E84C4357893111
(1718680318.122015) vcan0 1C5FBBFF#CAAACA0BB3E8093A
(1718680318.322341) vcan0 118DF064##65D142E49CBAAA81F
(1718680318.522756) vcan0 5CD##68BAEAC058D77F27E
(1718680318.723004) vcan0 1123B566#R8
(1718680318.923476) vcan0 766##5A58E42044D03BB76
(1718680319.123769) vcan0 438#R8
(1718680319.324105) vcan0 549#0A7CA0701608FD4E
(1718680319.525175) vcan0 41C##76D912E601FC1882D
(1718680319.725357) vcan0 0BF93C37##6D2A99267E7F31544
(1718680319.925844) vcan0 10C0BE2F##6B29EBE63D5DD0259
(1718680320.127655) vcan0 53E#R8
(1718680320.329137) vcan0 372#67FAAE14EA392308
(1718680320.529437) vcan0 18F1890C#R8
(1718680320.730253) vcan0 134415B3#DF43C84F397E3D61
(1718680320.930546) vcan0 7E9#R8
(1718680321.130984) vcan0 106917BC#AAAFFF4C2144A344
(1718680321.337079) vcan0 1492597C##40838B9088E80E959
(1718680321.537460) vcan0 6BA#645EEC32A8FB1F38
(1718680321.737661) vcan0 3C6#R8
(1718680321.938079) vcan0 05628709#R8
(1718680322.138547) vcan0 5BE##56322072E5B9D3926
(1718680322.339003) vcan0 1DCF6642#941B77076EB64340
(1718680322.540838) vcan0 17B1A1E3##6F8A4BA5F314A8E32
(1718680322.742106) vcan0 0CBA54A2##7528E3177920D7D44
(1718680322.942346) vcan0 1FEAC65A##7208E661ECBC59F46
(1718680323.142776) vcan0 484#73C1BF7E0DC14542
(1718680323.343427) vcan0 0F734E15##6A9E7B73284AFFA65
(1718680323.543942) vcan0 0B4D4830##796E1906C35E52913
(1718680323.744208) vcan0 3F9##7908263395F99784D
(1718680323.944692) vcan0 624#R8
(1718680324.145569) vcan0 0D76F4C6##598DA2D09A6F9A640
(1718680324.348664) vcan0 0EA#3807240587F77D7B
(1718680324.548983) vcan0 558#52BD1D4259CCAC6C
(1718680324.749484) vcan0 00DD7EC6#R8
(1718680324.949757) vcan0 01AA750F##6ACD10C37FAA12625
(1718680325.151247) vcan0 039DB342##72F8750382DA3B82F
(1718680325.351400) vcan0 11B409BF##68D3C317D77219D56
(1718680325.551688) vcan0 0AED8C5A##4DFB13C2DEAE71A2B
(1718680325.752843) vcan0 477#90E1C16B89CA9512
(1718680325.953512) vcan0 0C8##410C2130EA6241437
(1718680326.154288) vcan0 10317F63#FFF0C023FEFF4D09
(1718680326.354537) vcan0 12B37E65#2622605A04CB5F41
(1718680326.554797) vcan0 116CF3D2#FF6C8666B4B05541
(1718680326.754984) vcan0 42E#E2530E714F5E4073
(1718680326.955182) vcan0 06F##7C77FDD49D1A51943
(1718680327.156078) vcan0 171A31A6#BC8D346EEA9D9171
(1718680327.356279) vcan0 19F66F4C#R8
(1718680327.557193) vcan0 123B2A83#26D8621B36D64C5F
(1718680327.757408) vcan0 125##534D69A680FA87B73
(1718680327.957574) vcan0 02FAF85A##61473DB34003B3546
(1718680328.158309) vcan0 013#B4EB8A0740937209
(1718680328.358500) vcan0 18993F96#8FF1B27C2FD2C34A
(1718680328.558793) vcan0 06907156#0178DD0DCFEC0560
(1718680328.760683) vcan0 5BD#R8
(1718680328.961300) vcan0 15BEF32C#99147E4F1ECDE420
(1718680329.161445) vcan0 0AE0ECBF##754A3310096C7664A
(1718680329.361717) vcan0 08CC7988#A56FE23D70FDDB3B
(1718680329.562102) vcan0 2B9##4703811020E5E2F00
(1718680329.764972) vcan0 424#4EF1A1090E975848
(1718680329.965632) vcan0 0654E2DE##63D691C13C0330E69
(1718680330.166008) vcan0 13E#8F20144931F78F0A
(1718680330.366881) vcan0 1AABAB48##64B58BF75055C1473
(1718680330.567311) vcan0 4E4#2329F91324BC6458
(1718680330.767445) vcan0 478#BA83CB22890F235A
(1718680330.969308) vcan0 35F#F90CFF15E3B7BE28
(1718680331.169678) vcan0 18104569#R8
(1718680331.369944) vcan0 12900740#F32FE42948CDE123
(1718680331.570225) vcan0 131##70901F00C523ECA05
(1718680331.770801) vcan0 16042198##783355A106B61067B
(1718680331.971406) vcan0 06198DCE#70BD1A6E556B1A61
(1718680332.172061) vcan0 0213E693##479277F395754757B
(1718680332.372366) vcan0 1C4AAB33##6E06398550CF93513
(1718680332.574708) vcan0 0B9770D9##4EFB0F43BAC746410
(1718680332.777300) vcan0 6E0##4910DF071CF1F5425
(1718680332.977753) vcan0 585#18ED35493EB85750
(1718680333.178000) vcan0 621##591F621562551CF36
(1718680333.378149) vcan0 067C2C14#R8
(1718680333.578539) vcan0 1FF07000##4F047F47D96B4EC37
(1718680333.778823) vcan0 769#ED0862339F094338
(1718680333.979016) vcan0 08FA6CCD#R8
(1718680334.179365) vcan0 39A##5DC2D1B61E8933978
(1718680334.379507) vcan0 130B3B6D##6B7B38D1D9B48C303
(1718680334.579861) vcan0 0CF##4DA001B54A84FB447
(1718680334.781976) vcan0 76B#CEA0837EAA9E1369
(1718680334.982282) vcan0 1059535E##7447BED0562DD4E7D
(1718680335.182464) vcan0 03E1C334##7F8913B35F3194E72
(1718680335.382670) vcan0 2E5##79223912A3B4D134F
(1718680335.583608) vcan0 63E##46B06CA1F58E52966
(1718680335.784131) vcan0 447#R8
(1718680335.984691) vcan0 4F8#EF9C8B6DA7E8CF42
(1718680336.185203) vcan0 01A69DC9##54F38840AB85C9E1F
(1718680336.385649) vcan0 11D#62FBB108B3B89C7C
(1718680336.585944) vcan0 6A6#R8
(1718680336.786570) vcan0 0F27280E##6CE09F97B796CD64D
(1718680336.986746) vcan0 560#B4B9E91CA6CA5C09
(1718680337.187025) vcan0 01F##7FFAF866F772D0C1A
(1718680337.387457) vcan0 13F##5CA81D4031A648911
(1718680337.587772) vcan0 11601EB9##5C14C5954FF23902C
(1718680337.788669) vcan0 511##4B7802E4CB651EA1E
(1718680337.992542) vcan0 419##76A0A871BAA8A4621
(1718680338.193024) vcan0 1572A080##7857AF12A9A2C0176
(1718680338.393409) vcan0 453##71399D743828B5E5C
(1718680338.593819) vcan0 2C7#2956BB655205096A
(1718680338.794119) vcan0 628##5C93215044C070E5B
(1718680338.994636) vcan0 07E9B494##5676B976C9F85076D
(1718680339.194822) vcan0 00F0B828#9EA99719D08F502C
(1718680339.395229) vcan0 05C62A55#R8
(1718680339.595665) vcan0 3F0##71226FA282D99261E
(1718680339.797105) vcan0 098#C8C52714FF54CE40
(1718680339.997437) vcan0 17FF5EDB##681E02C1D9FD64A48
(1718680340.197609) vcan0 02E836AA##4F2DB533289C43556
(1718680340.397926) vcan0 6BB##4D6CB43313A6C567B
(1718680340.599264) vcan0 1DDB373D##7D9F15D689D969C37
(1718680340.800709) vcan0 01F59B77#6D26ED639F2C9A7E
(1718680341.002180) vcan0 7F3#07C84D063A6C6222
(1718680341.203418) vcan0 619#6705894054801E12
(1718680341.404726) vcan0 14B0CB2F#53D5EC529DB3097E
(1718680341.605014) vcan0 1019B5D5##63C8A5446AEDB7065
(1718680341.805250) vcan0 18A8662E##737A0A63B52292C4B
(1718680342.005768) vcan0 40D##68C9582463938646D
(1718680342.206578) vcan0 765##6D6CE0025B0929169
(1718680342.406948) vcan0 543#R8
(1718680342.607229) vcan0 0E798756##5E254F43A1BF1FF4D
(1718680342.808490) vcan0 1B7D5A49##76F711E602104F520
(1718680343.009025) vcan0 130B46C3#R8
(1718680343.209349) vcan0 1FA#R8
(1718680343.409804) vcan0 1DF5CB69#69125361131D0D0D
(1718680343.610287) vcan0 07D5A7F5##54C55717AC1DAA515
(1718680343.810556) vcan0 423##6716D377F36528C07
(1718680344.010764) vcan0 4C0##5DE3A1E209D167660
(1718680344.211194) vcan0 7C0##5B807762E86299E73
(1718680344.412431) vcan0 128##6A72D9314830FBE26
(1718680344.615955) vcan0 1391E565##6075F9C2383BCC464
(1718680344.816143) vcan0 05EB8A39##79AA5EB7A88CFE076
(1718680345.017209) vcan0 004##49BECED03198DC12E
(1718680345.218101) vcan0 1E5F41E8#R8
(1718680345.418715) vcan0 039ED54C##68AE15662717F3146
(1718680345.618852) vcan0 02751C69#0F96A72623B6DE00
(1718680345.819100) vcan0 151D9DC7#A9DF7C7433961734
(1718680346.019402) vcan0 09100D50##7B6A5D55ADAD65125
(1718680346.219767) vcan0 1E7204BD#5D93160A151A8755
(1718680346.420319) vcan0 0F8##59DE9674C99E43E28
(1718680346.620632) vcan0 639#R8
(1718680346.821159) vcan0 1B67D98D#49E01F402C7E866C
(1718680347.021603) vcan0 1D4##69DFDB732E7B0080A
(1718680347.221937) vcan0 195F93AC#R8
(1718680347.422477) vcan0 6B4#9A208B3663482F12
(1718680347.623012) vcan0 650#3E1F8137BA461645
(1718680347.825602) vcan0 29B##7CF609D1A045A3014
(1718680348.025794) vcan0 07054A6C##49D3E6F3C8FDCDA27
(1718680348.227649) vcan0 136FB050#852D300DC6381006
(1718680348.427792) vcan0 0D500DCE#R8
(1718680348.630162) vcan0 490##49EE9E617DFADB214
(1718680348.830710) vcan0 0A9#R8
(1718680349.031105) vcan0 0DB158E0#R8
(1718680349.231544) vcan0 152#1B32BD6F3EEAE46E
(1718680349.432100) vcan0 0A5A92EA#43441503817F0D7F
(1718680349.632508) vcan0 1F8482E0##5105CE826FCFDBA28
(1718680349.833078) vcan0 195#C336CB2E0EBDCB01
(1718680350.033230) vcan0 5B5#C5F5A90F06672F71
(1718680350.233494) vcan0 0790DF64#E614E20582EA5E45
(1718680350.433920) vcan0 1D084D2C#32648A726AC7916C
(1718680350.634283) vcan0 646#CBB238173CC5CB49
(1718680350.834476) vcan0 4E7#R8
(1718680351.034674) vcan0 1BC5F3BE#071B42602855B002
(1718680351.234890) vcan0 717##725536B2BCFA93E4E
(1718680351.435597) vcan0 1A3689E8#DD660A501198AB3C
(1718680351.635806) vcan0 1FB45CA2#R8
(1718680351.837141) vcan0 3FD##56504A807136CA451
(1718680352.037312) vcan0 1A326897#7D33363E35077F3B
(1718680352.237511) vcan0 649##772CC4A057696D854
(1718680352.438160) vcan0 3ED#FC310D360143B56D
(1718680352.638347) vcan0 164F4D03##62A98657049E60B75
(1718680352.838577) vcan0 1BD0EB4F##618904A43C8C4BC58
(1718680353.039113) vcan0 1354F6F5##5D95C6815D4EC9F71
(1718680353.239307) vcan0 3F0#R8
(1718680353.439556) vcan0 31C##7B2FBF24B17D1C547
(1718680353.642925) vcan0 72F#4DD844039202DB61
(1718680353.844975) vcan0 4BF#R8
(1718680354.045124) vcan0 305#AA23B22957904C40
(1718680354.245456) vcan0 3D4#A076583523DC8920
(1718680354.445810) vcan0 18A306B9##4EBA046795A1CF02B
(1718680354.646800) vcan0 5C4##72E09901D4651017F
(1718680354.847707) vcan0 11790FE6#E5E04F79A3C9F248
(1718680355.048599) vcan0 497##4BA9AB810B68ECD42
(1718680355.250359) vcan0 307##54891A8243F21042F
(1718680355.450758) vcan0 251##5E701016B72381863
(1718680355.651200) vcan0 591##5C9C864235E0D2D4B
(1718680355.851817) vcan0 18BD3F6A#82E9B66B8888B364
(1718680356.052318) vcan0 04FD8A6D##4E2A4A310D143585D
(1718680356.252916) vcan0 611##41895595CE7E19E45
(1718680356.453211) vcan0 15A975FD##58AAB910EF9D8B60C
(1718680356.654325) vcan0 644#B067844F5A5E586A
(1718680356.854841) vcan0 0F8#997F5C1912D1D44F
(1718680357.054961) vcan0 045D8181#8509ED329F18A617
(1718680357.255214) vcan0 24E##4FE25D3627888DB47
(1718680357.455426) vcan0 780#R8
(1718680357.655749) vcan0 1D32B5E3#AD9BC75D1F223427
(1718680357.856313) vcan0 0C5#0604D36CEB21136B
(1718680358.056690) vcan0 790##4E4FAC97756F9B62A
(1718680358.257070) vcan0 074E6294#B0570F1521AFF64D
(1718680358.457302) vcan0 0E6BD74A#3380CB1DD67E040B
(1718680358.657678) vcan0 10B889B8##67697AA22DDFFD94B
(1718680358.857868) vcan0 057DBD74##55588B513BF6D1956
(1718680359.058291) vcan0 156#9BC58856E1668F07
(1718680359.258580) vcan0 14506148#R8
(1718680359.459138) vcan0 1B968D07#18D5F053CF383C7E
(1718680359.659456) vcan0 7FC#R8
(1718680359.859674) vcan0 1E0289D5#8EE1A07F1E8E844E
(1718680360.059973) vcan0 1D6C61C1##7F40C8959EAB9371F
(1718680360.260553) vcan0 46A##6C8B9116B81472F15
(1718680360.460993) vcan0 21D##740B5486BD22EB955
(1718680360.662383) vcan0 01D17ADB##4B495485DAC2A833C
(1718680360.862571) vcan0 0C0C1EB5##4D9DD6025306E9364
(1718680361.062737) vcan0 2F1#R8
(1718680361.263263) vcan0 124##7C11A48707FB51558
(1718680361.463567) vcan0 44F##69D439A2619C43336
(1718680361.664177) vcan0 00235091#047E6B558B497A7B
(1718680361.865199) vcan0 7CC#R8
(1718680362.065439) vcan0 1BF2464C#AD85C1535D55507E
(1718680362.266022) vcan0 361#0980D33A4B9DE533
(1718680362.466168) vcan0 5E3##57C0B7918D2E5B864
(1718680362.666692) vcan0 27B#27CE5623C293921E
(1718680362.867149) vcan0 0E8#4149A8769AEED050
(1718680363.067830) vcan0 4DE#R8
(1718680363.268241) vcan0 0B7#D48C570C6CD2BC19
(1718680363.468520) vcan0 1D011DE0##44629C5176DE2315C
(1718680363.668952) vcan0 6F3#CA37825A5425B756
(1718680363.869239) vcan0 7D3#A0C29C0A6A04A759
(1718680364.073633) vcan0 61C##53DEA5F3E8B26104F
(1718680364.274088) vcan0 01B6B864##54DBAA26D370C6A25
(1718680364.474639) vcan0 38F#D1FA3A768486DD78
(1718680364.677073) vcan0 1D3FAD85#CDC9BA09DD6DF31E
(1718680364.877373) vcan0 6A1#R8
(1718680365.077729) vcan0 10756990#2D29CF52AED8064C
(1718680365.278018) vcan0 0D5160F7##402FEBD22D8E28C58
(1718680365.478434) vcan0 0A2##642E73332812E3138
(1718680365.678844) vcan0 17F##70C554107560FCF6E
(1718680365.879077) vcan0 14E40F59##48D1B3914302BA047
(1718680366.079299) vcan0 65F#B4B17D4056A3BC5A
(1718680366.279941) vcan0 382#3311B07920A26361
(1718680366.480347) vcan0 1260517D##4E0E80058A5465E13
(1718680366.681616) vcan0 0AD0120D#531F655F90D3D13E
(1718680366.881858) vcan0 555#68B65E17CF8BC81A
(1718680367.082820) vcan0 5AB#R8
(1718680367.284287) vcan0 75C##60C7CBD6E0EF9700C
(1718680367.484611) vcan0 02F6979A#3E2411549E314E28
(1718680367.685386) vcan0 148ED5F2#R8
(1718680367.885784) vcan0 VO1#FD1382769823123F
(1718680368.086240) vcan0 VO1#3D6A7052B1F2F031
(1718680368.286733) vcan0 11D58990##642C6C270F0817451
(1718680368.487021) vcan0 08217CAA#BF0D3D6CDD847663
(1718680368.687533) vcan0 1F36C80F#94F164638089DA0B
(1718680368.887777) vcan0 12226DA0##68E824B1820F69068
(1718680369.087964) vcan0 6CC##6BE27DF1033B38362
(1718680369.288580) vcan0 4B2##71025A27733CEB25F
(1718680369.488857) vcan0 10E##6CBF1C41E7E1AC03F
(1718680369.689507) vcan0 VO1#300DB171D744FA35
(1718680369.889752) vcan0 372#R8
(1718680370.089910) vcan0 486#R8
(1718680370.290277) vcan0 1DDF02EF#F2F323480074544C
(1718680370.491032) vcan0 006F7680##7216AE534CA751A45
(1718680370.691806) vcan0 1DF#FD289E270A9AB74D
(1718680370.892070) vcan0 60E##43D686A2D6C71536A
(1718680371.094700) vcan0 208#R8
(1718680371.295269) vcan0 VO1#DF010600A89B6F60
(1718680371.496524) vcan0 VO1#26287337A9BCCD68
(1718680371.696894) vcan0 11ED3981#1B271725C339032E
(1718680371.897264) vcan0 30D#C3AD577AFFACCD7F
(1718680372.097795) vcan0 0F3D17E4#C922E844D9AE761A
(1718680372.298253) vcan0 3C7#E3482E685638B04E
(1718680372.498665) vcan0 1598B121#C2A90339F1202B19
(1718680372.699110) vcan0 031735AC#F9DD36633AC12C1F
(1718680372.899365) vcan0 033CDFD8##5E25C9C7F533B147D
(1718680373.099796) vcan0 170F8508##7FCF7E165AD45D265
(1718680373.300122) vcan0 0AF91F17#707FD513F9FAC838
(1718680373.501298) vcan0 533#F9A79638B1CBDE45
(1718680373.701761) vcan0 2C2#R8
(1718680373.901919) vcan0 0883C36E#32271C015EB0CB75
(1718680374.103131) vcan0 1A1FD0F4##74FD1F60EB87FE43F
(1718680374.303520) vcan0 VO1#F240115F67D5121C
(1718680374.503835) vcan0 1EAD9DD5#BB102719A0371C40
(1718680374.704430) vcan0 1F0908B7#R8
(1718680374.904910) vcan0 19C3FCBD##760DC8277F3613602
(1718680375.106056) vcan0 10198459#A52D1548096F5B05
(1718680375.306560) vcan0 02F#R8
(1718680375.507222) vcan0 18E38517#R8
(1718680375.707670) vcan0 1C5FE753##6E55FEF0EAB5C3A10
(1718680375.908373) vcan0 0D7#R8
(1718680376.108826) vcan0 2CE#5D5D14248A616B62
(1718680376.309485) vcan0 0A02DAAB#F142252154737F4E
(1718680376.509836) vcan0 VO1#48D5B5505901B84B
(1718680376.710236) vcan0 18CB02ED##662701351C7F25976
(1718680376.910710) vcan0 647#R8
(1718680377.112203) vcan0 670##7E6F62E0169A9C134
(1718680377.312542) vcan0 6CB#1506FC4460EC4D46
(1718680377.512959) vcan0 11493828##41D12462A4F36CD4A
(1718680377.713848) vcan0 77A##5D997382D7BC63A7B
(1718680377.914090) vcan0 0E5DDACA#D039BA498E21241C
(1718680378.114809) vcan0 718#R8
(1718680378.315043) vcan0 18EF934A#8E90212621BD7074
(1718680378.517046) vcan0 1418E8FA#DBD39426F0B48803
(1718680378.717414) vcan0 07C3CAC2##6595E4A382FAD3907
(1718680378.918024) vcan0 1D46646E#8F99874D30190136
(1718680379.118431) vcan0 3AC##5804FCE008C174D25
(1718680379.318993) vcan0 759##508DE87204C65855E
(1718680379.519441) vcan0 7D8#DA86A97A40BC6A63
(1718680379.719778) vcan0 VO1#62687B13F538ED37
(1718680379.920229) vcan0 1953EA95##616F65D2C9D9E3F5D
(1718680380.120771) vcan0 12F2C9F2##78D53C860FA2AE63C
(1718680380.320976) vcan0 1E6#29D81F4441B69832
(1718680380.521213) vcan0 11A771B8#72CF9968EBB2E804
(1718680380.722317) vcan0 6F2#78CA352A8B389D4F
(1718680380.923108) vcan0 0ABDA880##6D79D222E6FC8D313
(1718680381.123670) vcan0 4B1#R8
(1718680381.324020) vcan0 6B6##43D209F717E0BC726
(1718680381.525545) vcan0 1DFD1653##61BAA0604DB9C3131
(1718680381.726048) vcan0 04CEFDA8#D5C7176EF974A66B
(1718680381.926281) vcan0 7FF##73B2B3F1EE3C53A14
(1718680382.126724) vcan0 06D8FAAD##5CF7823191C2F544D
(1718680382.327212) vcan0 03594347##7A767F11CEA1FB007
(1718680382.527560) vcan0 0B14057E##55AE8831B1FAC1643
(1718680382.728020) vcan0 12C26D09##76793C87CA1F8317F
(1718680382.929814) vcan0 3A4#1F04F9250B15F860
(1718680383.130010) vcan0 09FFAE3A##5E6B129123DAA547D
(1718680383.333600) vcan0 1BC##4361FFB68715BB00C
(1718680383.534515) vcan0 073A4A71##65421EB20722B5876
(1718680383.734806) vcan0 223##78E5AAC43BD5E547E
(1718680383.935119) vcan0 235##6A87E040631C97E0B
(1718680384.136947) vcan0 01886702##45075954EE2F1911F
(1718680384.338405) vcan0 0B5E08B7##684EAC31ECB1F7E51
(1718680384.538580) vcan0 04BCEEA3##6D734763253862A46
(1718680384.738789) vcan0 6BD##790307F43C0488B7D
(1718680384.939580) vcan0 0C7A4FC6#R8
(1718680385.143326) vcan0 586#R8
(1718680385.343648) vcan0 115F0035#143E1C40143D9D62
(1718680385.545750) vcan0 0620BCBC##645061C6E1E8AAE3D
(1718680385.745905) vcan0 396##7017C405DC9F7F31B
(1718680385.946526) vcan0 1C046685#9517726DA940D541
(1718680386.147318) vcan0 46C#FCC6FF0706F27D2F
(1718680386.349501) vcan0 0B7EF78C#C73A092DA3936929
(1718680386.549797) vcan0 6F8##4D70DC4208AE1AD2B
(1718680386.750271) vcan0 37E##7E1C0756D2804A147
(1718680386.950667) vcan0 6F5#3C413E2A1F76D251
(1718680387.151285) vcan0 185A4781#3D00810F6FDF5B5B
(1718680387.351565) vcan0 0CC17C3E##538D74F7765471B5D
(1718680387.552013) vcan0 04C1EECD##40E88F01EEC378729
(1718680387.753245) vcan0 06F04F0A#R8
(1718680387.953775) vcan0 4B9##506029C12E88D686A
(1718680388.153935) vcan0 7DD##4736F161630E8BE1F
(1718680388.354170) vcan0 054#R8
(1718680388.554434) vcan0 119E2D94#2FED7E53FAEAD024
(1718680388.754744) vcan0 56C##569CA2C002D38047F
(1718680388.955615) vcan0 177CA1A1##6927F1F5C6E4C8738
(1718680389.156009) vcan0 1B1007A0##75A840E62A8CBE860
(1718680389.356607) vcan0 64D##60B3A1B4A409D6F14
(1718680389.561816) vcan0 411##5292BD87EB856757E
(1718680389.762421) vcan0 14EE9A9C##7E93E341E4B0FEE51
(1718680389.962693) vcan0 341#5B869A5339FA9849
(1718680390.162987) vcan0 38A##533E5696EECCD2A41
(1718680390.363350) vcan0 79C##519062F40A1CADA59
(1718680390.563946) vcan0 1C4E85AC#R8
(1718680390.764068) vcan0 36A#55AD3A23F7E35E39
(1718680390.964556) vcan0 0D55E760##53781CE4DBE5CA670
(1718680391.165025) vcan0 460##476B31B6F616F245A
(1718680391.365376) vcan0 25F#R8
(1718680391.565755) vcan0 1FAD0507#250CA9437776162A
(1718680391.766077) vcan0 1212F158#6344416B87D9DF30
(1718680391.966584) vcan0 27C#29A4BA0A32F2BC06
(1718680392.167010) vcan0 339#DED30E49755D1D5F
(1718680392.367389) vcan0 0C498133##46C417C185BA01141
(1718680392.567917) vcan0 2A3#19FDB731068CAC23
(1718680392.768741) vcan0 08F#67FBD07D00B68614
(1718680392.969035) vcan0 09E37A13##7EDC7960E90C00741
(1718680393.169907) vcan0 412##607371E6BABF75650
(1718680393.370275) vcan0 165F7B6A##632D136015F66FC24
(1718680393.570680) vcan0 55B##59158B92B0F968E49
(1718680393.771286) vcan0 470#84F3AB2838879B3A
(1718680393.971915) vcan0 012834F0##49327AD7B3716B13A
(1718680394.172811) vcan0 0D6524AC##43DA25D5E9766645A
(1718680394.373106) vcan0 1C2E9DA4##6981CEB6E2A785C7C
(1718680394.573815) vcan0 1D81E485##5BA38643DD196A22F
(1718680394.774197) vcan0 08826FC1##57C8EF97F027E1454
(1718680394.975075) vcan0 01305FAF##662E4107912B1B100
(1718680395.175234) vcan0 4F3##62147404A9F053036
(1718680395.381166) vcan0 12EC3AA5##4D78CCB700717A47A
(1718680395.581439) vcan0 0C78B46A#3E2D55352867875B
(1718680395.781846) vcan0 77C##5C0CDEB3551AE1668
(1718680395.982660) vcan0 258#7C267364D884F375
(1718680396.182858) vcan0 01D75F36#R8
(1718680396.383121) vcan0 226#R8
(1718680396.583619) vcan0 1F3FE9D9#356BED49DFDEE133
(1718680396.783875) vcan0 256#7EE4116A30909C7D
(1718680396.984040) vcan0 1ADD7155##637A74078905C2E3B
(1718680397.185097) vcan0 0D95D475##7B9C3B516D5FE3361
(1718680397.385339) vcan0 0CA19179#27AD4A4912112A31
(1718680397.586109) vcan0 0DBDD3A3#EA951D27AE4AD113
(1718680397.786371) vcan0 0CB3B193#R8
(1718680397.986542) vcan0 0C1AD799#R8
(1718680398.186871) vcan0 72A##46E44E54C3FE8646F
(1718680398.388715) vcan0 16F728EC#6F78016D7CC65F48
(1718680398.589033) vcan0 7A6##40D238E0301C02A59
(1718680398.789280) vcan0 1A43E6C6##6D7BE5E3A0D982054
(1718680398.989750) vcan0 03A96BFE##71FA94A0510F45D58
(1718680399.190084) vcan0 0C683F09#BE3E2F6C7A72FC00
(1718680399.390759) vcan0 0E0#R8
(1718680399.591417) vcan0 041##6E4B16204ECA99049
(1718680399.791832) vcan0 1147F652##62B92F538EC30746C
(1718680399.992182) vcan0 05F70A9A##769F7D33481B9131A
(1718680400.192455) vcan0 276#82793E735C1E111E
(1718680400.392807) vcan0 059#R8
(1718680400.593325) vcan0 177C5F88##58B6DE911F8E3AD62
(1718680400.793869) vcan0 1E18AC49#7356AA632D8F001D
(1718680400.994115) vcan0 1E95CABF#83DB5F08A3A5692E
(1718680401.195006) vcan0 568#904FFA776B52DA27
(1718680401.395436) vcan0 1BB##658834E14F9A24966
(1718680401.595924) vcan0 2C1##57A5C5D0096162062
(1718680401.796422) vcan0 139BD5FD##5F234310073962A54
(1718680401.997415) vcan0 35B##5EE0FB60DAEB27F52
(1718680402.198117) vcan0 1F9F7D79##4A6962D3574E9C30D
(1718680402.401986) vcan0 519##4A278C42AEBE6EB0D
(1718680402.602729) vcan0 425#R8
(1718680402.803077) vcan0 144FDC1F#4405F43B4865F11D
(1718680403.003531) vcan0 09C##641083B0430AA263C
(1718680403.205226) vcan0 049864BC#R8
(1718680403.406077) vcan0 1E77F5B9#R8
(1718680403.606614) vcan0 1CCA3EF5#BDFBEC6BF82BBA7A
(1718680403.807162) vcan0 264##76D157E0830E6213A
(1718680404.007392) vcan0 13428E0F#R8
(1718680404.207703) vcan0 1AA#2EEA7965C2C34D26
(1718680404.408841) vcan0 016DEF72#0A293F44A4F3F21D
(1718680404.609658) vcan0 14B##7D49D195A6B7B150B
(1718680404.809839) vcan0 18605E9B##5FF13FF25C0D04645
(1718680405.010255) vcan0 15134306#D019B45E6A35B327
(1718680405.210458) vcan0 0AA1158D##662616D22693E472E
(1718680405.410708) vcan0 0AEB76CF#992469686F27AE25
(1718680405.611141) vcan0 1B5##7C55E0E7713E79444
(1718680405.811771) vcan0 1C8848F3##7D5AAE26A29818D6D
(1718680406.012093) vcan0 3DF##5CD74800B74B0A66F
(1718680406.212616) vcan0 2A1##6E02BBC7A329BAE44
(1718680406.413168) vcan0 00BB3FDF#R8
(1718680406.613591) vcan0 5C2##5FCFA851CE104AC47
(1718680406.813928) vcan0 45E#4B43F3754143061F
(1718680407.014556) vcan0 7E4##7B06AB4440CD80C48
(1718680407.215283) vcan0 1BC2C975#R8
(1718680407.417098) vcan0 178469F4#22263B31CF4A4116
(1718680407.617290) vcan0 1CBB9AEF##443FBE705FE42421E
(1718680407.817565) vcan0 723#30DEF062CD1E5000
(1718680408.017932) vcan0 0CE64A22##45FE42275E9E92D57
(1718680408.218751) vcan0 11A8DF5B#CAEED91E356BDA08
(1718680408.419046) vcan0 215##676AEE027E80E7B3A
(1718680408.619693) vcan0 127##6F4E6870293F3FC01
(1718680408.822107) vcan0 614#R8
(1718680409.022425) vcan0 6AE#D43FE456DC4D542D
(1718680409.222773) vcan0 1CCC3B18#R8
(1718680409.423165) vcan0 0E876F0A##6FB2547563EC9CF7E
(1718680409.631100) vcan0 25B#27B3FD551189FD70
(1718680409.832685) vcan0 1F2##546F4D7797025AF2D
(1718680410.032962) vcan0 01B8A2BD##558342A68016ECE7C
(1718680410.233121) vcan0 34D#9561CB7E809EA536
(1718680410.433626) vcan0 0475FA21#8693487769D18900
(1718680410.633843) vcan0 35A#451FDE2D6D12FD6E
(1718680410.835075) vcan0 01F##49B19F444AE706908
(1718680411.035646) vcan0 1B3B3F97#EC39390756D86943
(1718680411.236497) vcan0 514##467616734A833B843
(1718680411.436991) vcan0 5AE##5195967710D63B35B
(1718680411.637176) vcan0 19918D71##60FD181584FB4455E
(1718680411.837726) vcan0 2A4##7CF52EB141F6A1F3E
(1718680412.038352) vcan0 0C33E655#893BA93E95E51E57
(1718680412.239384) vcan0 2CE#03F81B4622C85905
(1718680412.439590) vcan0 19E##7D038C30D172AF80D
(1718680412.640010) vcan0 14FC72BD#6D026251279BF00C
(1718680412.840285) vcan0 05C963D5#D0CEA850D7EE4144
(1718680413.040493) vcan0 021027E9##4E451F51FEEB10004
(1718680413.240687) vcan0 2F3##63D664662195EE55F
(1718680413.442277) vcan0 1731B90C##538C8041E5D82876B
(1718680413.642458) vcan0 3C1##4F267A6421259C65D
(1718680413.842719) vcan0 7F5#342120637E69312F
(1718680414.043093) vcan0 VO1#344E343DC9C21D3A
(1718680414.253800) vcan0 603##4F15D0E47932C1378
(1718680414.453943) vcan0 4C1#R8
(1718680414.654511) vcan0 54E##649655E4C040A6975
(1718680414.855695) vcan0 386##41D684E55D9E58524
(1718680415.056157) vcan0 056##436680D10F4233C29
(1718680415.262021) vcan0 12B3D029##5067D0207A7923619
(1718680415.463730) vcan0 63B##725FC6748B2A1486F
(1718680415.663994) vcan0 7BB#7C64662902C5E560
(1718680415.865470) vcan0 26D##795F1F858961F7228
(1718680416.065811) vcan0 4FF##7F1D2CF70D843F361
(1718680416.266842) vcan0 1D2E383A#DC4D5C578F0A5A46
(1718680416.467142) vcan0 5FA#69F0DF6A5288A911
(1718680416.668370) vcan0 09F#47ACE53A671AFF6F
(1718680416.869622) vcan0 14D#0FAD3509E7581729
(1718680417.069823) vcan0 134#99FA5F18C8BF1007
(1718680417.270228) vcan0 01C65F15##7CA84F667AD5E4C6B
(1718680417.470618) vcan0 65F##4437EBE13B010673A
(1718680417.670928) vcan0 134##788545A1CACFDD547
(1718680417.871450) vcan0 265##73B08300E2E8D8F2D
(1718680418.071683) vcan0 190FF8A4##78115393FAF3E5F40
(1718680418.272002) vcan0 1C8#16595E300C7A9E41
(1718680418.472204) vcan0 19940625#F3D2B56A9EB21168
(1718680418.672546) vcan0 58D##66672226F49E86062
(1718680418.874376) vcan0 731##4F746AD4D254E1777
(1718680419.074907) vcan0 53A#D55E7E31EFF0456E
(1718680419.275318) vcan0 0DD8B35E##79BEE1B36DD9FB627
(1718680419.476859) vcan0 044BF6D6##40C2D465522AEF061
(1718680419.677329) vcan0 147F428D##6D1EC4F22BF405931
(1718680419.878090) vcan0 12AE45E7#CBBAF7726AEFA44A
(1718680420.078438) vcan0 1DAD8DBF#08A2B63267FB7317
(1718680420.278717) vcan0 46F#B0E3D479EE879F25
(1718680420.479364) vcan0 2A7#13D6B61C3079FA10
(1718680420.679571) vcan0 4E9##41F6A407F5106E80E
(1718680420.880135) vcan0 155C58BA##52EA69E360A3E9D5D
(1718680421.081153) vcan0 0BE4D33A#2CEC8D3F0C3F0437
(1718680421.281270) vcan0 01DDD8FD##5CB7F5D681C1A022F
(1718680421.481697) vcan0 296#8709A779F16ACE40
(1718680421.682300) vcan0 0C5DAB8F#58664258A123C619
(1718680421.882847) vcan0 209##790AB653F9ECB2847
(1718680422.083523) vcan0 1A3#CF44235892648742
(1718680422.283941) vcan0 6EE#E36A6F51D39E5F46
(1718680422.484362) vcan0 080E1112#DDDCFC233A576806
(1718680422.684683) vcan0 109#46966C3D14FA5634
(1718680422.885863) vcan0 611##530145963EBC0F479
(1718680423.086109) vcan0 1D001DB7##5DC2BC33AFD18223A
(1718680423.286576) vcan0 13059235##59E3CE85345899457
(1718680423.487088) vcan0 02E##7E454BD1EEE50B67E
(1718680423.693622) vcan0 1B3##481B53D415E20BC19
(1718680423.895529) vcan0 12AD2064#32BF1B604A50045B
(1718680424.096497) vcan0 40F##584A76C61C315AE2E
(1718680424.296697) vcan0 1ED93DCA#R8
(1718680424.497232) vcan0 065E2407##60AC8002783A4C245
(1718680424.697703) vcan0 01C3F3E7##780BDE47F060BBC2C
(1718680424.898112) vcan0 21E#R8
(1718680425.099383) vcan0 030DE92F#48B39C581F4C8556
(1718680425.299913) vcan0 0C9##47D6C417084CB3268
(1718680425.500707) vcan0 3AF##7CE1B3743A4BA4247
(1718680425.701146) vcan0 04A3C353##767D0F075D82C193C
(1718680425.901819) vcan0 18F5E03E#R8
(1718680426.102106) vcan0 402##57CF9E24D0546B242
(1718680426.302435) vcan0 0DC7B6FC#0B516E6F0576B366
(1718680426.502792) vcan0 556##65FD899406793AF08
(1718680426.703244) vcan0 3A7##586DF345F6851BB30
(1718680426.903686) vcan0 0F764C04#EC1CEE189F7D985F
(1718680427.103971) vcan0 1C2538BB##44338DB26723F4974
(1718680427.304334) vcan0 0AB##74A6C62302BFD4544
(1718680427.504530) vcan0 1987A042#2452664C2FED1515
(1718680427.705454) vcan0 3A0#3433C8572D8C971B
(1718680427.908389) vcan0 43F#R8
(1718680428.108626) vcan0 291##51E4755121C38C251
(1718680428.310587) vcan0 6A5#R8
(1718680428.510908) vcan0 1B6BA671#48D8C46E5CEAD360
(1718680428.711775) vcan0 08C#CF291D553ADB5978
(1718680428.913398) vcan0 057F9619##565D89F3C20022E28
(1718680429.113802) vcan0 09062A8A##650EF433D9FD2B448
(1718680429.314213) vcan0 284##6CC5E4C64C778600B
(1718680429.514434) vcan0 134#202020155A103817
(1718680429.714812) vcan0 075B739C##77648FA68C8A19705
(1718680429.918627) vcan0 0B77D1FA#71FCC314EA0CE659
(1718680430.121027) vcan0 0388D4BA##647F7B93A9757747E
(1718680430.321564) vcan0 116##5D132CE767DFE944B
(1718680430.521797) vcan0 136E0B37##79D00C3738BED5D34
(1718680430.722197) vcan0 1106EFED#2AC0127DEBABC35F
(1718680430.922602) vcan0 6F7##4B224246B36B95522
(1718680431.122972) vcan0 002A5130#90C98D3985BB7271
(1718680431.323625) vcan0 02881206#4D5D0A770E5F6B40
(1718680431.524059) vcan0 1BE#F96B511A6C5CE314
(1718680431.724394) vcan0 340#R8
(1718680431.924994) vcan0 6D5##53B121574853B397A
(1718680432.125290) vcan0 2D9#1029972ECD27087A
(1718680432.325864) vcan0 13B##5B8D3CB593815F25E
(1718680432.526516) vcan0 06B##46ECE47012788FF54
(1718680432.726702) vcan0 1AD597FE##6AC437246680EA06C
(1718680432.927511) vcan0 144#0A0A0A2D058E5D6B
(1718680433.130679) vcan0 170#R8
(1718680433.332164) vcan0 674#EF3C220106C14A01
(1718680433.532517) vcan0 15374F2A#8BFC837B5577525B
(1718680433.733137) vcan0 0A1B259C##4229F5A55CA64EE75
(1718680433.934028) vcan0 0F2672DB##5027AE0540917CE62
(1718680434.134349) vcan0 071##5309FCD37E1B43039
(1718680434.334536) vcan0 1E3FE2DD##74AC3D025748A5B6E
(1718680434.535667) vcan0 0C1##57918B9598E7E0705
(1718680434.736020) vcan0 19FA02EA#BFA7A95DE146A136
(1718680434.936632) vcan0 4AE##7E707EC37A826510B
(1718680435.137092) vcan0 472#R8
(1718680435.337425) vcan0 520##7A6FA0027E5385033
(1718680435.537802) vcan0 1BE174A8##6EE4F1E16411B3B5F
(1718680435.738092) vcan0 0DEBEF1F#R8
(1718680435.938383) vcan0 36C#R8
(1718680436.138684) vcan0 0B1C4076#61D4EF0C5ECE512B
(1718680436.339285) vcan0 420#3F15F361BEE4A872
(1718680436.540979) vcan0 526##7660BFA7DA694681D
(1718680436.741330) vcan0 049DA964#R8
(1718680436.941593) vcan0 528#8D842A5E7F96C00B
(1718680437.141904) vcan0 1448D47B#C0B1FB6AEA566743
(1718680437.342018) vcan0 1E2##673F46E269695600E
(1718680437.542908) vcan0 17D21C70##769EB48167CD9BC52
(1718680437.743119) vcan0 7CA##5DBA70E7E46A00428
(1718680437.945096) vcan0 51A##60585AD1AB89C3757
(1718680438.145753) vcan0 18A7906B#5E31A074DAFB2F47
(1718680438.348100) vcan0 031B5BE1##781470A725320E11D
(1718680438.549247) vcan0 1034CC0E#D2B6A129DA1AF529
(1718680438.749970) vcan0 092##6C5715C6D2464B206
(1718680438.950487) vcan0 13CB6638#BBF91215C4FFA859
(1718680439.150706) vcan0 0B5BE524#40D9652C8FDF8B2E
(1718680439.351464) vcan0 11B##7D67F9056D8E0665C
(1718680439.551681) vcan0 4DB##5907D9E3377185704
(1718680439.752009) vcan0 6EE##55114874B16CF2A07
(1718680439.952615) vcan0 1D915BD2##769EF0B25D98BF123
(1718680440.153173) vcan0 0EADA63C#B3A6E64D6BC84352
(1718680440.353836) vcan0 078##78F2CF65843F94F7B
(1718680440.554048) vcan0 0E09264A#07F9F8545A01AC5A
(1718680440.754625) vcan0 248##7E9E037095CB0F967
(1718680440.955452) vcan0 1FC860BF##43491604499914936
(1718680441.156049) vcan0 6C4##610AAA03AE1FAEB5A
(1718680441.357429) vcan0 0627BE61##4F7C9166282C8970B
(1718680441.557602) vcan0 160#5B54892F15427F51
(1718680441.758176) vcan0 30F#R8
(1718680441.958850) vcan0 1CB9370F##5AE676B343892C107
(1718680442.159275) vcan0 0B6##692936D62C8682704
(1718680442.359635) vcan0 47C##72519216C61869636
(1718680442.560244) vcan0 1081AA59##6FB17E06CD63A741C
(1718680442.760550) vcan0 20B##7B7356077D176BE48
(1718680442.960843) vcan0 1976FFAE#533F5654A19A6171
(1718680443.161822) vcan0 3AF##7B6DCE042AB186A36
(1718680443.366843) vcan0 736##71687856F45A2023A
(1718680443.566964) vcan0 03F0EEC4#7E34C4419F7B1F4E
(1718680443.767804) vcan0 010##668E4465278821838
(1718680443.968525) vcan0 58D#DA08AF6EC811455B
(1718680444.168687) vcan0 0D5##59E4CB97704616A17
(1718680444.368859) vcan0 255#D5D728604D63B830
(1718680444.570211) vcan0 147F1729##4EEFD1922113B2A29
(1718680444.770583) vcan0 2A4#R8
(1718680444.970885) vcan0 2D2##6DBDBB07320E0FB2E
(1718680445.171178) vcan0 15751059##5BF5B1B7D11196020
(1718680445.371570) vcan0 027##68A9B7858F6147E69
(1718680445.574576) vcan0 464#BE26C3449BE5B37C
(1718680445.774953) vcan0 1C7C735C#R8
(1718680445.975413) vcan0 14471E75#670B7F56B4772674
(1718680446.175757) vcan0 155##7C6B2501D76E02461
(1718680446.375999) vcan0 682##60C1AD31AD4A53229
(1718680446.576859) vcan0 0E83F5E7#F4852E58ECAA093F
(1718680446.777463) vcan0 1549E1B4#FDC3695FABDE9F1D
(1718680446.977976) vcan0 17E25F87##6A1F31D07905F7632
(1718680447.178260) vcan0 0BE11A60##62B452A2F24C9C021
(1718680447.378556) vcan0 3CA#R8
(1718680447.579421) vcan0 1E067CA5##722FB1928DDDF5560
(1718680447.779736) vcan0 5E8##653C07A41F4693374
(1718680447.980653) vcan0 1C4DDA5F##6C90F661DC0954E0E
(1718680448.181229) vcan0 159495BD##5AC40584D88D6CA2E
(1718680448.381587) vcan0 0CC204A9#33B56A4C4D998A6F
(1718680448.582187) vcan0 1388A8D4#DDF800221C68AE63
(1718680448.782905) vcan0 608#41316F05F150C727
(1718680448.983752) vcan0 27F##45FD4BA5B1274034C
(1718680449.183922) vcan0 781#EF53592C1EA59C01
(1718680449.384576) vcan0 443##6130FD075D5318F0B
(1718680449.584747) vcan0 6DC##495C7DD19E9BEF334
(1718680449.785142) vcan0 07360841#R8
(1718680449.985462) vcan0 2A4##658C533431B719C78
(1718680450.185841) vcan0 0534BE35#R8
(1718680450.386087) vcan0 01BA0A79#R8
(1718680450.586362) vcan0 3FD#R8
(1718680450.786541) vcan0 03308E11##73A714A1BE928B273
(1718680450.988037) vcan0 04D#BE5A417FF690267B
(1718680451.188339) vcan0 191F2253#E04F1A30C3531B2D
(1718680451.388946) vcan0 551#CE7FC4007E374D14
(1718680451.589133) vcan0 526##59AA8E90C6F23B447
(1718680451.790013) vcan0 093481D2##61CDACF6A98FF8C5F
(1718680451.990480) vcan0 15B2E1BB##6A7C5602A43399F79
(1718680452.191461) vcan0 7C9#R8
(1718680452.391835) vcan0 699##62092757A2E306D35
(1718680452.592657) vcan0 19B6ECDE##524C1933010960264
(1718680452.793040) vcan0 00AE1104#D3E91D11C5392B13
(1718680452.994040) vcan0 1A1##5447178274C268938
(1718680453.194528) vcan0 146219DE##5BB493D0022B2077F
(1718680453.395033) vcan0 3D7#BAB1945EFB278568
(1718680453.595624) vcan0 762##43E6124624BC3107D
(1718680453.796331) vcan0 1571669D##6822CD4030505964E
(1718680453.997228) vcan0 6A3##5333503041DD4BA63
(1718680454.199992) vcan0 1496F657#2E6ABD47B3BAD60A
(1718680454.401002) vcan0 401#R8
(1718680454.601682) vcan0 057A65BC##4FE2355426A6C9840
(1718680454.801919) vcan0 5B9##68D1EA03F4A1B7317
(1718680455.002240) vcan0 047#4543F87F23975F4E
(1718680455.204119) vcan0 021CA483#6E5A704BD4BE5771
(1718680455.404509) vcan0 6F0#D9C3ED3F57E8967B
(1718680455.604751) vcan0 03F0F90C##474BC515F15F18E45
(1718680455.805052) vcan0 6A2#C8AB6550C0F6CC0D
(1718680456.005383) vcan0 040#72F498174738A86A
(1718680456.209376) vcan0 19EE1870#R8
(1718680456.409575) vcan0 0AE0C33E#E2A03145B917204A
(1718680456.612130) vcan0 427##5DCAE7F182FDB3F30
(1718680456.812431) vcan0 03F0094A##6049A9721CB93D47E
(1718680457.012775) vcan0 01855DDD##6227C6B7ACED5C200
(1718680457.213369) vcan0 097##6E3C651464E46FE1D
(1718680457.414240) vcan0 16B772AB#R8
(1718680457.614598) vcan0 180#24125F6BE9180139
(1718680457.818690) vcan0 6D6#809EBF6619D0D239
(1718680458.018861) vcan0 762#D2E7F2039A0D960A
(1718680458.219479) vcan0 6AF##6CAE8D53A35AC6118
(1718680458.419790) vcan0 1C6D82CE#R8
(1718680458.621412) vcan0 11A1BC23##603065A3495376963
(1718680458.822197) vcan0 4E6##6E37D6701F3532B6C
(1718680459.023676) vcan0 2F1##4D12DE26C7E528216
(1718680459.223975) vcan0 18413FF5#676B834F6136E90D
