(1734114888.726981) vcan0 7B0#062E6FC8775430
(1734114888.727945) vcan0 7D0#037F2E92
(1734114888.827538) vcan0 7B0#062E0B81423656
(1734114888.828228) vcan0 7D0#037F2E86
(1734114888.929158) vcan0 7B0#062E3DBC4E7659
(1734114888.931526) vcan0 7D0#037F2E93
(1734114889.031148) vcan0 7B0#062E161C74716B
(1734114889.033316) vcan0 7D0#037F2E84
(1734114889.133481) vcan0 7B0#062E4603335166
(1734114889.135707) vcan0 7D0#037F2E31
(1734114889.235091) vcan0 7B0#062E8F1B744D4F
(1734114889.240463) vcan0 7D0#037F2E90
(1734114889.337043) vcan0 7B0#062E777F553978
(1734114889.338889) vcan0 7D0#037F2E8B
(1734114889.437651) vcan0 7B0#062EFD87563771
(1734114889.438282) vcan0 7D0#037F2E93
(1734114889.538628) vcan0 7B0#062EF8056F5544
(1734114889.539874) vcan0 7D0#037F2E8C
(1734114889.640345) vcan0 7B0#062E9BBE69696E
(1734114889.642677) vcan0 7D0#037F2E33
(1734114889.742066) vcan0 7B0#062E86CB703743
(1734114889.744339) vcan0 7D0#037F2E87
(1734114889.843752) vcan0 7B0#062E8CF9584D56
(1734114889.846027) vcan0 7D0#037F2E82
(1734114889.945364) vcan0 7B0#062E259A664234
(1734114889.947643) vcan0 7D0#037F2E8C
(1734114890.046946) vcan0 7B0#062E719D4D7246
(1734114890.049150) vcan0 7D0#037F2E85
(1734114890.148550) vcan0 7B0#062E1F07455651
(1734114890.150756) vcan0 7D0#037F2E83
(1734114890.250217) vcan0 7B0#062EF0CD486169
(1734114890.252432) vcan0 7D0#037F2E8E
(1734114890.351896) vcan0 7B0#062E1CB0306F79
(1734114890.354438) vcan0 7D0#037F2E8B
(1734114890.452572) vcan0 7B0#062E4078346159
(1734114890.453363) vcan0 7D0#037F2E8B
(1734114890.554265) vcan0 7B0#062E55B0525744
(1734114890.556549) vcan0 7D0#037F2E31
(1734114890.656264) vcan0 7B0#062E0433456354
(1734114890.659091) vcan0 7D0#037F2E83
(1734114890.757901) vcan0 7B0#062EB3186A6969
(1734114890.760153) vcan0 7D0#037F2E26
(1734114890.859571) vcan0 7B0#062E9AA06E3778
(1734114890.861906) vcan0 7D0#037F2E81
(1734114890.961226) vcan0 7B0#062E4555513262
(1734114890.963429) vcan0 7D0#037F2E8D
(1734114891.062206) vcan0 7B0#062EBAB04B7A44
(1734114891.063409) vcan0 7D0#037F2E72
(1734114891.162753) vcan0 7B0#062E6CE948746E
(1734114891.163490) vcan0 7D0#037F2E8E
(1734114891.263412) vcan0 7B0#062E463D503279
(1734114891.264423) vcan0 7D0#037F2E8A
(1734114891.365243) vcan0 7B0#062E364B615333
(1734114891.367485) vcan0 7D0#037F2E8E
(1734114891.466270) vcan0 7B0#062EF963467357
(1734114891.467672) vcan0 7D0#037F2E92
(1734114891.567940) vcan0 7B0#062E6F19794D59
(1734114891.570166) vcan0 7D0#037F2E8A
(1734114891.669059) vcan0 7B0#062EED5C48784D
(1734114891.670474) vcan0 7D0#037F2E8B
(1734114891.770726) vcan0 7B0#062E60494E324E
(1734114891.772895) vcan0 7D0#037F2E13
(1734114891.872351) vcan0 7B0#072E14F270746D7B
(1734114891.874696) vcan0 7D0#036E14F2
(1734114891.973980) vcan0 7B0#062EE517656E56
(1734114891.976242) vcan0 7D0#037F2E24
(1734114892.074904) vcan0 7B0#062E3612526846
(1734114892.076083) vcan0 7D0#037F2E13
(1734114892.175571) vcan0 7B0#062EF32F4C4A38
(1734114892.176452) vcan0 7D0#037F2E13
(1734114892.277178) vcan0 7B0#062E77AB793075
(1734114892.279496) vcan0 7D0#036E77AB
(1734114892.378078) vcan0 7B0#062E735D743335
(1734114892.379436) vcan0 7D0#037F2E91
(1734114892.479711) vcan0 7B0#062E5ACA576D6D
(1734114892.481951) vcan0 7D0#037F2E22
(1734114892.580756) vcan0 7B0#062E185A304A44
(1734114892.581905) vcan0 7D0#037F2E8E
(1734114892.682715) vcan0 7B0#062E2A9B555F5F
(1734114892.684873) vcan0 7D0#037F2E81
(1734114892.784313) vcan0 7B0#062EEF4E48304F
(1734114892.786513) vcan0 7D0#037F2E8E
(1734114892.885085) vcan0 7B0#062E7A49425872
(1734114892.886082) vcan0 7D0#037F2E33
(1734114892.985671) vcan0 7B0#062E6E28315261
(1734114892.986392) vcan0 7D0#037F2E22
(1734114893.087258) vcan0 7B0#062E918E717879
(1734114893.089661) vcan0 7D0#037F2E87
(1734114893.188102) vcan0 7B0#062E1A65644368
(1734114893.189207) vcan0 7D0#037F2E85
(1734114893.289743) vcan0 7B0#062EDDA75F664C
(1734114893.292018) vcan0 7D0#037F2E86
(1734114893.390512) vcan0 7B0#062E0083776355
(1734114893.391461) vcan0 7D0#037F2E8A
(1734114893.491620) vcan0 7B0#062E5B3E48354F
(1734114893.493276) vcan0 7D0#037F2E8A
(1734114893.593188) vcan0 7B0#062EEEC9525F6A
(1734114893.596353) vcan0 7D0#036EEEC9
(1734114893.694835) vcan0 7B0#062E4149654B31
(1734114893.697042) vcan0 7D0#037F2E84
(1734114893.795626) vcan0 7B0#062E778C624C73
(1734114893.796645) vcan0 7D0#037F2E82
(1734114893.896833) vcan0 7B0#062E6731535F48
(1734114893.898604) vcan0 7D0#037F2E8D
(1734114893.998480) vcan0 7B0#062E2165786E6A
(1734114894.000625) vcan0 7D0#037F2E22
(1734114894.099086) vcan0 7B0#062EC180626A4A
(1734114894.099823) vcan0 7D0#037F2E90
(1734114894.200012) vcan0 7B0#062E4832447666
(1734114894.201202) vcan0 7D0#037F2E34
(1734114894.300879) vcan0 7B0#062EBCBA4A5170
(1734114894.302046) vcan0 7D0#037F2E24
(1734114894.401656) vcan0 7B0#062E1BC7614538
(1734114894.402520) vcan0 7D0#037F2E92
(1734114894.503594) vcan0 7B0#062EDE92307572
(1734114894.504441) vcan0 7D0#036EDE92
(1734114894.604632) vcan0 7B0#062E71194D3274
(1734114894.605484) vcan0 7D0#037F2E72
(1734114894.705237) vcan0 7B0#062E5E61764863
(1734114894.706006) vcan0 7D0#037F2E8D
(1734114894.805821) vcan0 7B0#062EB3FA485457
(1734114894.806470) vcan0 7D0#037F2E90
(1734114894.907452) vcan0 7B0#062E6E78577755
(1734114894.909781) vcan0 7D0#037F2E34
(1734114895.009042) vcan0 7B0#062E87E26E3379
(1734114895.011606) vcan0 7D0#036E87E2
(1734114895.110206) vcan0 7B0#062E06F744725F
(1734114895.111712) vcan0 7D0#037F2E93
(1734114895.211134) vcan0 7B0#062EF80B494F77
(1734114895.212390) vcan0 7D0#037F2E91
(1734114895.311830) vcan0 7B0#062E6BEC554C67
(1734114895.312640) vcan0 7D0#037F2E88
(1734114895.413854) vcan0 7B0#062E472B6E6247
(1734114895.416127) vcan0 7D0#037F2E87
(1734114895.514483) vcan0 7B0#062E505A7A4C65
(1734114895.515166) vcan0 7D0#037F2E85
(1734114895.616120) vcan0 7B0#062E9037437066
(1734114895.618400) vcan0 7D0#037F2E72
(1734114895.717768) vcan0 7B0#062E0EF26E5257
(1734114895.719938) vcan0 7D0#037F2E31
(1734114895.818689) vcan0 7B0#062EDE57753735
(1734114895.819865) vcan0 7D0#037F2E72
(1734114895.920332) vcan0 7B0#062E82E0743932
(1734114895.923111) vcan0 7D0#037F2E84
(1734114896.022202) vcan0 7B0#062E4727647243
(1734114896.024381) vcan0 7D0#037F2E85
(1734114896.123133) vcan0 7B0#062EF6D8784343
(1734114896.124388) vcan0 7D0#037F2E8A
(1734114896.224677) vcan0 7B0#062EA8A6595535
(1734114896.227175) vcan0 7D0#037F2E31
(1734114896.326451) vcan0 7B0#062E97AB5F7949
(1734114896.327962) vcan0 7D0#037F2E81
(1734114896.428591) vcan0 7B0#062E0506344143
(1734114896.430901) vcan0 7D0#037F2E93
(1734114896.530256) vcan0 7B0#062E7BD16C4E30
(1734114896.532689) vcan0 7D0#037F2E90
(1734114896.631866) vcan0 7B0#062E3CFE436970
(1734114896.634076) vcan0 7D0#037F2E87
(1734114896.733492) vcan0 7B0#062E96C85F316E
(1734114896.735969) vcan0 7D0#036E96C8
(1734114896.834429) vcan0 7B0#062ED268715970
(1734114896.835599) vcan0 7D0#037F2E8B
(1734114896.936030) vcan0 7B0#062E02AE384B36
(1734114896.938367) vcan0 7D0#037F2E10
(1734114897.037130) vcan0 7B0#062EA23F666C7A
(1734114897.038853) vcan0 7D0#037F2E89
(1734114897.138794) vcan0 7B0#062E6A184B4D71
(1734114897.141083) vcan0 7D0#037F2E8E
(1734114897.240359) vcan0 7B0#062E3CA8575253
(1734114897.242660) vcan0 7D0#037F2E87
(1734114897.341995) vcan0 7B0#062E821E397A47
(1734114897.344201) vcan0 7D0#037F2E93
(1734114897.443629) vcan0 7B0#062ED086585A32
(1734114897.445903) vcan0 7D0#037F2E8B
(1734114897.545227) vcan0 7B0#062E20824F7245
(1734114897.547448) vcan0 7D0#037F2E8E
(1734114897.646809) vcan0 7B0#062E723A4A3968
(1734114897.649071) vcan0 7D0#037F2E8C
(1734114897.748424) vcan0 7B0#062ECABA376165
(1734114897.750734) vcan0 7D0#037F2E13
(1734114897.850024) vcan0 7B0#062EEE70496C56
(1734114897.852256) vcan0 7D0#037F2E88
(1734114897.950683) vcan0 7B0#062ECE23395974
(1734114897.951510) vcan0 7D0#037F2E26
(1734114898.052789) vcan0 7B0#062E2DD3754752
(1734114898.055096) vcan0 7D0#037F2E92
(1734114898.154482) vcan0 7B0#062E4A11304D65
(1734114898.156710) vcan0 7D0#037F2E88
(1734114898.256121) vcan0 7B0#062EDC255F4932
(1734114898.258768) vcan0 7D0#037F2E8E
(1734114898.358333) vcan0 7B0#062E5A1D576E44
(1734114898.360524) vcan0 7D0#037F2E8A
(1734114898.459796) vcan0 7B0#062E92E7374F66
(1734114898.460511) vcan0 7D0#037F2E8B
(1734114898.561425) vcan0 7B0#062EFAC46A3074
(1734114898.563684) vcan0 7D0#037F2E83
(1734114898.663025) vcan0 7B0#062E9B53793263
(1734114898.665216) vcan0 7D0#037F2E26
(1734114898.763929) vcan0 7B0#062E3B125F6334
(1734114898.765100) vcan0 7D0#036E3B12
(1734114898.864528) vcan0 7B0#062E7331615267
(1734114898.865301) vcan0 7D0#037F2E26
(1734114898.966153) vcan0 7B0#062E0EDB725F68
(1734114898.967661) vcan0 7D0#036E0EDB
(1734114899.067764) vcan0 7B0#062E17BB696D4F
(1734114899.070033) vcan0 7D0#037F2E82
(1734114899.168992) vcan0 7B0#062EAB33696A32
(1734114899.170539) vcan0 7D0#037F2E22
(1734114899.271238) vcan0 7B0#062E14F7773373
(1734114899.272773) vcan0 7D0#037F2E86
(1734114899.372862) vcan0 7B0#062E92A6777273
(1734114899.375202) vcan0 7D0#037F2E86
(1734114899.474453) vcan0 7B0#062E48A9756A62
(1734114899.476764) vcan0 7D0#037F2E26
(1734114899.582020) vcan0 7B0#062EABF4767176
(1734114899.583139) vcan0 7D0#037F2E8F
(1734114899.682621) vcan0 7B0#062E3F37345730
(1734114899.683369) vcan0 7D0#037F2E85
(1734114899.784239) vcan0 7B0#062EB2B2587255
(1734114899.786530) vcan0 7D0#037F2E93
(1734114899.885900) vcan0 7B0#062E9C656A537A
(1734114899.888082) vcan0 7D0#037F2E8E
(1734114899.987524) vcan0 7B0#062E5BBC5F4532
(1734114899.989872) vcan0 7D0#037F2E34
(1734114900.089080) vcan0 7B0#062E21314A5348
(1734114900.091684) vcan0 7D0#037F2E81
(1734114900.190037) vcan0 7B0#062EB794775031
(1734114900.191231) vcan0 7D0#037F2E85
(1734114900.292114) vcan0 7B0#062EB4A941706A
(1734114900.294369) vcan0 7D0#037F2E34
(1734114900.393729) vcan0 7B0#062E66336C4262
(1734114900.395890) vcan0 7D0#037F2E34
(1734114900.495320) vcan0 7B0#062ECE2F6E4372
(1734114900.497605) vcan0 7D0#037F2E86
(1734114900.596898) vcan0 7B0#062EFEB334636B
(1734114900.599047) vcan0 7D0#036EFEB3
(1734114900.698514) vcan0 7B0#062EC75A643153
(1734114900.701169) vcan0 7D0#037F2E93
(1734114900.800036) vcan0 7B0#062E244B646264
(1734114900.802414) vcan0 7D0#037F2E92
(1734114900.901615) vcan0 7B0#062EB8235F6658
(1734114900.903780) vcan0 7D0#037F2E26
(1734114901.003200) vcan0 7B0#062E0F8E326350
(1734114901.005449) vcan0 7D0#037F2E13
(1734114901.104604) vcan0 7B0#062EBC2334544F
(1734114901.106870) vcan0 7D0#037F2E8C
(1734114901.206314) vcan0 7B0#062EBBDA444759
(1734114901.208567) vcan0 7D0#037F2E90
(1734114901.308539) vcan0 7B0#062E28CE663656
(1734114901.310737) vcan0 7D0#037F2E13
(1734114901.410192) vcan0 7B0#062EC2D0466352
(1734114901.412445) vcan0 7D0#037F2E8C
(1734114901.511294) vcan0 7B0#062E02C15A6378
(1734114901.512796) vcan0 7D0#037F2E8F
(1734114901.612842) vcan0 7B0#062E237435324B
(1734114901.615232) vcan0 7D0#037F2E8C
(1734114901.714554) vcan0 7B0#062EEA87523064
(1734114901.716994) vcan0 7D0#037F2E22
(1734114901.816784) vcan0 7B0#062E64B9316E36
(1734114901.819013) vcan0 7D0#036E64B9
(1734114901.918442) vcan0 7B0#062E3443683249
(1734114901.920862) vcan0 7D0#037F2E90
(1734114902.019520) vcan0 7B0#062E33365F6834
(1734114902.020969) vcan0 7D0#036E3336
(1734114902.121120) vcan0 7B0#062E72F4654F77
(1734114902.123311) vcan0 7D0#037F2E84
(1734114902.223270) vcan0 7B0#062EBA32514855
(1734114902.226055) vcan0 7D0#037F2E31
(1734114902.324913) vcan0 7B0#062E379D516669
(1734114902.327369) vcan0 7D0#037F2E31
(1734114902.426588) vcan0 7B0#062E7987464734
(1734114902.428770) vcan0 7D0#037F2E81
(1734114902.527729) vcan0 7B0#062E3EB875456F
(1734114902.529218) vcan0 7D0#037F2E33
(1734114902.629331) vcan0 7B0#062EA00B555576
(1734114902.631658) vcan0 7D0#037F2E24
(1734114902.731863) vcan0 7B0#062E4A9C447567
(1734114902.734124) vcan0 7D0#037F2E87
(1734114902.832650) vcan0 7B0#062E38DA65744E
(1734114902.833649) vcan0 7D0#037F2E24
(1734114902.933498) vcan0 7B0#062EC9F0533537
(1734114902.934477) vcan0 7D0#037F2E33
(1734114903.034102) vcan0 7B0#062E7003784771
(1734114903.035039) vcan0 7D0#037F2E8D
(1734114903.135528) vcan0 7B0#062E6825577676
(1734114903.137590) vcan0 7D0#037F2E82
(1734114903.236250) vcan0 7B0#062E9A21354355
(1734114903.237110) vcan0 7D0#037F2E89
(1734114903.337852) vcan0 7B0#062E5DD4626D6E
(1734114903.340122) vcan0 7D0#037F2E8C
(1734114903.438519) vcan0 7B0#062E6692507A42
(1734114903.439234) vcan0 7D0#037F2E92
(1734114903.539839) vcan0 7B0#062E564A32516B
(1734114903.542016) vcan0 7D0#037F2E8D
(1734114903.641478) vcan0 7B0#062EF573454257
(1734114903.643778) vcan0 7D0#037F2E88
(1734114903.743060) vcan0 7B0#062EC428735F66
(1734114903.746789) vcan0 7D0#036EC428
(1734114903.843682) vcan0 7B0#062E2FC96E7A4E
(1734114903.844365) vcan0 7D0#037F2E13
(1734114903.945291) vcan0 7B0#062E12105A3049
(1734114903.947487) vcan0 7D0#037F2E84
(1734114904.046216) vcan0 7B0#062E379A447163
(1734114904.047381) vcan0 7D0#037F2E8C
(1734114904.148234) vcan0 7B0#062E1639345376
(1734114904.150659) vcan0 7D0#037F2E91
(1734114904.248991) vcan0 7B0#062E1202316E34
(1734114904.249925) vcan0 7D0#036E1202
(1734114904.350632) vcan0 7B0#062EA8AC453663
(1734114904.352895) vcan0 7D0#037F2E86
(1734114904.452249) vcan0 7B0#062E99DC624359
(1734114904.455220) vcan0 7D0#037F2E22
(1734114904.553687) vcan0 7B0#062EF695366765
(1734114904.555859) vcan0 7D0#037F2E93
(1734114904.655878) vcan0 7B0#062EE3FE376B71
(1734114904.658112) vcan0 7D0#037F2E24
(1734114904.757724) vcan0 7B0#062E42F86C6C79
(1734114904.759438) vcan0 7D0#036E42F8
(1734114904.859352) vcan0 7B0#062ECF66714677
(1734114904.861622) vcan0 7D0#037F2E72
(1734114904.960954) vcan0 7B0#062E9431577875
(1734114904.963243) vcan0 7D0#037F2E82
(1734114905.062940) vcan0 7B0#062E9DAB554B78
(1734114905.065475) vcan0 7D0#037F2E81
(1734114905.165185) vcan0 7B0#062EFCD5746253
(1734114905.167412) vcan0 7D0#037F2E92
(1734114905.266710) vcan0 7B0#062E71915F6233
(1734114905.269029) vcan0 7D0#036E7191
(1734114905.368282) vcan0 7B0#062EF5C235687A
(1734114905.371049) vcan0 7D0#037F2E8F
(1734114905.469960) vcan0 7B0#062E458B496E6D
(1734114905.472386) vcan0 7D0#037F2E87
(1734114905.571608) vcan0 7B0#062ED0A0585973
(1734114905.573852) vcan0 7D0#037F2E24
(1734114905.673812) vcan0 7B0#062EA486494461
(1734114905.676459) vcan0 7D0#037F2E24
(1734114905.774972) vcan0 7B0#062E46C84E3647
(1734114905.776462) vcan0 7D0#037F2E83
(1734114905.876651) vcan0 7B0#062E1935706361
(1734114905.879221) vcan0 7D0#037F2E22
(1734114905.978300) vcan0 7B0#062E0B76343271
(1734114905.980444) vcan0 7D0#037F2E31
(1734114906.080833) vcan0 7B0#072E866067556E7D
(1734114906.082602) vcan0 7D0#036E8660
(1734114906.182419) vcan0 7B0#062E1C7A68516E
(1734114906.184640) vcan0 7D0#037F2E72
(1734114906.284062) vcan0 7B0#062EB0F6416643
(1734114906.286337) vcan0 7D0#037F2E26
(1734114906.385751) vcan0 7B0#062E6F8D734434
(1734114906.388117) vcan0 7D0#037F2E24
(1734114906.488233) vcan0 7B0#062E13D3576731
(1734114906.489832) vcan0 7D0#037F2E13
(1734114906.589881) vcan0 7B0#062EEC60334431
(1734114906.592102) vcan0 7D0#037F2E92
(1734114906.691421) vcan0 7B0#062EFA9D375442
(1734114906.693839) vcan0 7D0#037F2E22
(1734114906.792274) vcan0 7B0#062E2125757452
(1734114906.793420) vcan0 7D0#037F2E8E
(1734114906.893986) vcan0 7B0#062E7A275F4C4E
(1734114906.896249) vcan0 7D0#037F2E26
(1734114906.994765) vcan0 7B0#062E0E8243524D
(1734114906.995722) vcan0 7D0#037F2E8D
(1734114907.096307) vcan0 7B0#062E352A784453
(1734114907.098703) vcan0 7D0#037F2E31
(1734114907.197086) vcan0 7B0#062E6E6D665176
(1734114907.198079) vcan0 7D0#037F2E84
(1734114907.297730) vcan0 7B0#062E1620764C59
(1734114907.298478) vcan0 7D0#037F2E92
(1734114907.399343) vcan0 7B0#062E2D646F6574
(1734114907.401681) vcan0 7D0#037F2E82
(1734114907.500138) vcan0 7B0#062EFF446C4F32
(1734114907.501153) vcan0 7D0#037F2E33
(1734114907.601773) vcan0 7B0#062EC041424B5A
(1734114907.603987) vcan0 7D0#037F2E81
(1734114907.704846) vcan0 7B0#062E5C185F4E56
(1734114907.707960) vcan0 7D0#037F2E83
(1734114907.806843) vcan0 7B0#062E1F4436334B
(1734114907.807495) vcan0 7D0#037F2E8A
(1734114907.908775) vcan0 7B0#062ED725363147
(1734114907.911078) vcan0 7D0#037F2E33
(1734114908.009688) vcan0 7B0#062EE26C424E43
(1734114908.010561) vcan0 7D0#037F2E83
(1734114908.111323) vcan0 7B0#062E8D53454356
(1734114908.113552) vcan0 7D0#037F2E84
(1734114908.213281) vcan0 7B0#062E04F1636733
(1734114908.215744) vcan0 7D0#037F2E84
(1734114908.314889) vcan0 7B0#062E4C02353649
(1734114908.317088) vcan0 7D0#037F2E8D
(1734114908.415468) vcan0 7B0#062E553C58526E
(1734114908.416129) vcan0 7D0#037F2E86
(1734114908.516493) vcan0 7B0#062E90E94C6E41
(1734114908.517282) vcan0 7D0#037F2E8A
(1734114908.618180) vcan0 7B0#062E0DE5675438
(1734114908.620454) vcan0 7D0#037F2E34
(1734114908.719737) vcan0 7B0#062E70014B4B43
(1734114908.722144) vcan0 7D0#037F2E81
(1734114908.820363) vcan0 7B0#062E74B8537A63
(1734114908.821052) vcan0 7D0#037F2E8F
(1734114908.920976) vcan0 7B0#062EF3547A764A
(1734114908.921732) vcan0 7D0#037F2E89
(1734114909.022585) vcan0 7B0#062E36F1645039
(1734114909.024792) vcan0 7D0#037F2E31
(1734114909.124219) vcan0 7B0#062E9E2E5A764E
(1734114909.126475) vcan0 7D0#037F2E8B
(1734114909.224904) vcan0 7B0#062E177D783339
(1734114909.225704) vcan0 7D0#037F2E34
(1734114909.325832) vcan0 7B0#062E996E51316D
(1734114909.326996) vcan0 7D0#037F2E81
(1734114909.427501) vcan0 7B0#062E050C6B6264
(1734114909.429843) vcan0 7D0#037F2E82
(1734114909.528276) vcan0 7B0#062E4D07753378
(1734114909.529220) vcan0 7D0#037F2E92
